(1664369888.445282) can0 0C249980#0000000000000000
(1664369888.465081) can0 18FEFAF9#0100000300000000
(1664369888.484952) can0 14FF9980#01
(1664369888.525260) can0 0C259980#0000000000000000
(1664369888.535429) can0 0C269980#0000000000000000
(1664369888.565165) can0 0C279980#0000000000000000
(1664369888.585436) can0 0C289980#0000000000000000
(1664369888.605391) can0 18FEF8F9#0108DD0600000000
(1664369888.615846) can0 18FEF8F9#0400000000000000
(1664369888.616082) can0 18FEF8F9#0500000000000000
(1664369888.616353) can0 18FEF8F9#062C9F0700000000
(1664369888.616693) can0 18FEF8F9#0700000000000000
(1664369888.625366) can0 0C299980#0000000000000000
(1664369888.655897) can0 18FEF8F9#1400000000000000
(1664369888.656237) can0 18FEF8F9#1500000000000000
(1664369888.656504) can0 18FEF8F9#1600000000000000
(1664369888.656787) can0 18FEF8F9#1700000000000000
(1664369888.665205) can0 18FEF8F9#1800000000000000
(1664369888.665247) can0 18FEF8F9#1900000000000000
(1664369888.665532) can0 18FEF8F9#1A00000000000000
(1664369888.665820) can0 18FEF8F9#1B00000000000000
(1664369888.675875) can0 18FEF8F9#1C00000000000000
(1664369888.676104) can0 18FEF8F9#1D00000000000000
(1664369888.676404) can0 18FEF8F9#1E00000000000000
(1664369888.676705) can0 18FEF8F9#1F00000000000000
(1664369888.685420) can0 18FEF8F9#2000000000000000
(1664369888.685635) can0 18FEF8F9#2100000000000000
(1664369888.685905) can0 18FEF8F9#2200000000000000
(1664369888.686229) can0 18FEF8F9#2300000000000000
(1664369888.695851) can0 18FEF8F9#0000000000000000
(1664369888.696116) can0 18FEF8F9#0200000000000000
(1664369888.696403) can0 18FEF8F9#0300000000000000
(1664369888.696459) can0 14FF9980#01
(1664369888.715910) can0 18FEF8F9#0800000000000000
(1664369888.716127) can0 18FEF8F9#0900000000000000
(1664369888.716398) can0 18FEF8F9#0A00000000000000
(1664369888.716743) can0 18FEF8F9#0B00000000000000
(1664369888.725497) can0 18FEF8F9#0C00000000000000
(1664369888.725720) can0 18FEF8F9#0D00000000000000
(1664369888.726038) can0 18FEF8F9#0E00000000000000
(1664369888.726297) can0 18FEF8F9#0F00000000000000
(1664369888.736109) can0 18FEF8F9#1000000000000000
(1664369888.736151) can0 18FEF8F9#1100000000000000
(1664369888.736433) can0 18FEF8F9#1200000000000000
(1664369888.736795) can0 18FEF8F9#1300000000000000
(1664369888.737035) can0 0C239980#0000000000000000
(1664369888.805355) can0 0C209980#10278200C409
(1664369888.904938) can0 14FF9980#01
(1664369888.925230) can0 0C009980#090F0000000000
(1664369888.925461) can0 0C219980#0000007000000000
(1664369888.975982) can0 18FEFAF9#0100000300000000
(1664369888.976194) can0 0C019980#060050FFD0070000
(1664369888.976464) can0 0C2A9980#FFFFFFFFFFFFFFFF
(1664369888.995924) can0 0C229980#000000007D000000
(1664369889.115718) can0 14FF9980#01
(1664369889.324925) can0 14FF9980#01
(1664369889.465163) can0 0C249980#0000000000000000
(1664369889.485083) can0 18FEFAF9#0100000300000000
(1664369889.535452) can0 0C259980#0000000000000000
(1664369889.535493) can0 14FF9980#01
(1664369889.545071) can0 0C269980#0000000000000000
(1664369889.575952) can0 0C279980#0000000000000000
(1664369889.596092) can0 0C289980#0000000000000000
(1664369889.635829) can0 0C299980#0000000000000000
(1664369889.745405) can0 0C239980#0000000000000000
(1664369889.745448) can0 14FF9980#01
(1664369889.776220) can0 18FEF8F9#0108DD0600000000
(1664369889.785355) can0 18FEF8F9#0400000000000000
(1664369889.785610) can0 18FEF8F9#0500000000000000
(1664369889.785879) can0 18FEF8F9#062C9F0700000000
(1664369889.786187) can0 18FEF8F9#0700000000000000
(1664369889.816038) can0 0C209980#10278200C409
(1664369889.825663) can0 18FEF8F9#1400000000000000
(1664369889.825845) can0 18FEF8F9#1500000000000000
(1664369889.826113) can0 18FEF8F9#1600000000000000
(1664369889.826415) can0 18FEF8F9#1700000000000000
(1664369889.835827) can0 18FEF8F9#1800000000000000
(1664369889.835913) can0 18FEF8F9#1900000000000000
(1664369889.836309) can0 18FEF8F9#1A00000000000000
(1664369889.836516) can0 18FEF8F9#1B00000000000000
(1664369889.845429) can0 18FEF8F9#1C00000000000000
(1664369889.845495) can0 18FEF8F9#1D00000000000000
(1664369889.845916) can0 18FEF8F9#1E00000000000000
(1664369889.846118) can0 18FEF8F9#1F00000000000000
(1664369889.856331) can0 18FEF8F9#2000000000000000
(1664369889.856373) can0 18FEF8F9#2100000000000000
(1664369889.856611) can0 18FEF8F9#2200000000000000
(1664369889.856964) can0 18FEF8F9#2300000000000000
(1664369889.865357) can0 18FEF8F9#0000000000000000
(1664369889.865584) can0 18FEF8F9#0200000000000000
(1664369889.865858) can0 18FEF8F9#0300000000000000
(1664369889.885331) can0 18FEF8F9#0800000000000000
(1664369889.885572) can0 18FEF8F9#0900000000000000
(1664369889.885853) can0 18FEF8F9#0A00000000000000
(1664369889.886064) can0 18FEF8F9#0B00000000000000
(1664369889.895854) can0 18FEF8F9#0C00000000000000
(1664369889.896072) can0 18FEF8F9#0D00000000000000
(1664369889.896367) can0 18FEF8F9#0E00000000000000
(1664369889.896682) can0 18FEF8F9#0F00000000000000
(1664369889.905800) can0 18FEF8F9#1000000000000000
(1664369889.906050) can0 18FEF8F9#1100000000000000
(1664369889.906327) can0 18FEF8F9#1200000000000000
(1664369889.906619) can0 18FEF8F9#1300000000000000
(1664369889.935836) can0 0C009980#090F0000000000
(1664369889.936051) can0 0C219980#0000007000000000
(1664369889.955729) can0 14FF9980#01
(1664369889.985439) can0 0C019980#060050FFD0070000
(1664369889.985658) can0 0C2A9980#FFFFFFFFFFFFFFFF
(1664369890.005676) can0 18FEFAF9#0100000300000000
(1664369890.005884) can0 0C229980#000000007D000000
(1664369890.164697) can0 14FF9980#01
(1664369890.375317) can0 14FF9980#01
(1664369890.485071) can0 0C249980#0000000000000000
(1664369890.515425) can0 18FEFAF9#0100000300000000
(1664369890.545226) can0 0C259980#0000000000000000
(1664369890.556285) can0 0C269980#0000000000000000
(1664369890.585583) can0 0C279980#0000000000000000
(1664369890.585621) can0 14FF9980#01
(1664369890.605863) can0 0C289980#0000000000000000
(1664369890.646044) can0 0C299980#0000000000000000
(1664369890.755765) can0 0C239980#0000000000000000
(1664369890.795850) can0 14FF9980#01
(1664369890.825785) can0 0C209980#10278200C409
(1664369890.945871) can0 18FEF8F9#0108DD0600000000
(1664369890.945949) can0 0C009980#090F0000000000
(1664369890.946309) can0 0C219980#0000007000000000
(1664369890.955737) can0 18FEF8F9#0400000000000000
(1664369890.955996) can0 18FEF8F9#0500000000000000
(1664369890.956168) can0 18FEF8F9#062C9F0700000000
(1664369890.956520) can0 18FEF8F9#0700000000000000
(1664369890.995203) can0 18FEF8F9#1400000000000000
(1664369890.995446) can0 18FEF8F9#1500000000000000
(1664369890.995751) can0 18FEF8F9#1600000000000000
(1664369890.996065) can0 18FEF8F9#1700000000000000
(1664369890.996344) can0 0C019980#060050FFD0070000
(1664369890.996662) can0 0C2A9980#FFFFFFFFFFFFFFFF
(1664369891.005064) can0 18FEF8F9#1800000000000000
(1664369891.005347) can0 18FEF8F9#1900000000000000
(1664369891.005643) can0 18FEF8F9#1A00000000000000
(1664369891.005926) can0 18FEF8F9#1B00000000000000
(1664369891.006108) can0 14FF9980#01
(1664369891.015397) can0 18FEF8F9#1C00000000000000
(1664369891.015528) can0 18FEF8F9#1D00000000000000
(1664369891.015899) can0 18FEF8F9#1E00000000000000
(1664369891.016173) can0 18FEF8F9#1F00000000000000
(1664369891.016470) can0 0C229980#000000007D000000
(1664369891.025285) can0 18FEF8F9#2000000000000000
(1664369891.025482) can0 18FEF8F9#2100000000000000
(1664369891.025809) can0 18FEF8F9#2200000000000000
(1664369891.026077) can0 18FEF8F9#2300000000000000
(1664369891.026373) can0 18FEFAF9#0100000300000000
(1664369891.035416) can0 18FEF8F9#0000000000000000
(1664369891.035635) can0 18FEF8F9#0200000000000000
(1664369891.035912) can0 18FEF8F9#0300000000000000
(1664369891.055425) can0 18FEF8F9#0800000000000000
(1664369891.055515) can0 18FEF8F9#0900000000000000
(1664369891.055886) can0 18FEF8F9#0A00000000000000
(1664369891.056176) can0 18FEF8F9#0B00000000000000
(1664369891.065242) can0 18FEF8F9#0C00000000000000
(1664369891.065284) can0 18FEF8F9#0D00000000000000
(1664369891.065614) can0 18FEF8F9#0E00000000000000
(1664369891.065904) can0 18FEF8F9#0F00000000000000
(1664369891.075424) can0 18FEF8F9#1000000000000000
(1664369891.075557) can0 18FEF8F9#1100000000000000
(1664369891.075880) can0 18FEF8F9#1200000000000000
(1664369891.076176) can0 18FEF8F9#1300000000000000
(1664369891.225037) can0 14FF9980#01
(1664369891.438333) can0 14FF9980#01
(1664369891.502495) can0 0C249980#0000000000000000
(1664369891.535278) can0 18FEFAF9#0100000300000000
(1664369891.555957) can0 0C259980#0000000000000000
(1664369891.565207) can0 0C269980#0000000000000000
(1664369891.596251) can0 0C279980#0000000000000000
(1664369891.615979) can0 0C289980#0000000000000000
(1664369891.645764) can0 14FF9980#01
(1664369891.656298) can0 0C299980#0000000000000000
(1664369891.764967) can0 0C239980#0000000000000000
(1664369891.835281) can0 0C209980#10278200C409
(1664369891.855795) can0 14FF9980#01
(1664369891.955850) can0 0C009980#090F0000000000
(1664369891.956095) can0 0C219980#0000007000000000
(1664369892.005163) can0 0C019980#060050FFD0070000
(1664369892.005218) can0 0C2A9980#FFFFFFFFFFFFFFFF
(1664369892.025023) can0 0C229980#000000007D000000
(1664369892.045106) can0 18FEFAF9#0100000300000000
(1664369892.065240) can0 14FF9980#01
(1664369892.115907) can0 18FEF8F9#0108DD0600000000
(1664369892.124910) can0 18FEF8F9#0400000000000000
(1664369892.125176) can0 18FEF8F9#0500000000000000
(1664369892.125504) can0 18FEF8F9#062C9F0700000000
(1664369892.125806) can0 18FEF8F9#0700000000000000
(1664369892.164851) can0 18FEF8F9#1400000000000000
(1664369892.165040) can0 18FEF8F9#1500000000000000
(1664369892.165422) can0 18FEF8F9#1600000000000000
(1664369892.165673) can0 18FEF8F9#1700000000000000
(1664369892.175653) can0 18FEF8F9#1800000000000000
(1664369892.175982) can0 18FEF8F9#1900000000000000
(1664369892.176253) can0 18FEF8F9#1A00000000000000
(1664369892.176462) can0 18FEF8F9#1B00000000000000
(1664369892.184803) can0 18FEF8F9#1C00000000000000
(1664369892.185094) can0 18FEF8F9#1D00000000000000
(1664369892.185394) can0 18FEF8F9#1E00000000000000
(1664369892.185671) can0 18FEF8F9#1F00000000000000
(1664369892.195273) can0 18FEF8F9#2000000000000000
(1664369892.195560) can0 18FEF8F9#2100000000000000
(1664369892.195838) can0 18FEF8F9#2200000000000000
(1664369892.196137) can0 18FEF8F9#2300000000000000
(1664369892.204831) can0 18FEF8F9#0000000000000000
(1664369892.205119) can0 18FEF8F9#0200000000000000
(1664369892.205436) can0 18FEF8F9#0300000000000000
(1664369892.224727) can0 18FEF8F9#0800000000000000
(1664369892.224992) can0 18FEF8F9#0900000000000000
(1664369892.225289) can0 18FEF8F9#0A00000000000000
(1664369892.225586) can0 18FEF8F9#0B00000000000000
(1664369892.235697) can0 18FEF8F9#0C00000000000000
(1664369892.235919) can0 18FEF8F9#0D00000000000000
(1664369892.236326) can0 18FEF8F9#0E00000000000000
(1664369892.236512) can0 18FEF8F9#0F00000000000000
(1664369892.244792) can0 18FEF8F9#1000000000000000
(1664369892.245037) can0 18FEF8F9#1100000000000000
(1664369892.245339) can0 18FEF8F9#1200000000000000
(1664369892.245562) can0 18FEF8F9#1300000000000000
(1664369892.275901) can0 14FF9980#01
(1664369892.484842) can0 14FF9980#01
(1664369892.504898) can0 0C249980#0000000000000000
(1664369892.555797) can0 18FEFAF9#0100000300000000
(1664369892.564967) can0 0C259980#0000000000000000
(1664369892.585086) can0 0C269980#0000000000000000
(1664369892.604828) can0 0C279980#0000000000000000
(1664369892.625044) can0 0C289980#0000000000000000
(1664369892.665244) can0 0C299980#0000000000000000
(1664369892.695722) can0 14FF9980#01
(1664369892.775746) can0 0C239980#0000000000000000
(1664369892.844995) can0 0C209980#10278200C409
(1664369892.904991) can0 14FF9980#01
(1664369892.964943) can0 0C009980#090F0000000000
(1664369892.965166) can0 0C219980#0000007000000000
(1664369893.015789) can0 0C2A9980#FFFFFFFFFFFFFFFF
(1664369893.025123) can0 0C019980#060050FFD0070000
(1664369893.035803) can0 0C229980#000000007D000000
(1664369893.064930) can0 18FEFAF9#0100000300000000
(1664369893.115566) can0 14FF9980#01
(1664369893.285290) can0 18FEF8F9#0108DD0600000000
(1664369893.302728) can0 18FEF8F9#0400000000000000
(1664369893.302772) can0 18FEF8F9#0500000000000000
(1664369893.303054) can0 18FEF8F9#062C9F0700000000
(1664369893.303383) can0 18FEF8F9#0700000000000000
(1664369893.325229) can0 14FF9980#01
(1664369893.335341) can0 18FEF8F9#1400000000000000
(1664369893.335581) can0 18FEF8F9#1500000000000000
(1664369893.335876) can0 18FEF8F9#1600000000000000
(1664369893.336174) can0 18FEF8F9#1700000000000000
(1664369893.345145) can0 18FEF8F9#1800000000000000
(1664369893.345188) can0 18FEF8F9#1900000000000000
(1664369893.345460) can0 18FEF8F9#1A00000000000000
(1664369893.345794) can0 18FEF8F9#1B00000000000000
(1664369893.355356) can0 18FEF8F9#1C00000000000000
(1664369893.355569) can0 18FEF8F9#1D00000000000000
(1664369893.355856) can0 18FEF8F9#1E00000000000000
(1664369893.356151) can0 18FEF8F9#1F00000000000000
(1664369893.365074) can0 18FEF8F9#2000000000000000
(1664369893.365206) can0 18FEF8F9#2100000000000000
(1664369893.365639) can0 18FEF8F9#2200000000000000
(1664369893.365854) can0 18FEF8F9#2300000000000000
(1664369893.375324) can0 18FEF8F9#0000000000000000
(1664369893.375548) can0 18FEF8F9#0200000000000000
(1664369893.375868) can0 18FEF8F9#0300000000000000
(1664369893.399679) can0 18FEF8F9#0800000000000000
(1664369893.399947) can0 18FEF8F9#0900000000000000
(1664369893.400263) can0 18FEF8F9#0A00000000000000
(1664369893.400531) can0 18FEF8F9#0B00000000000000
(1664369893.405922) can0 18FEF8F9#0C00000000000000
(1664369893.406155) can0 18FEF8F9#0D00000000000000
(1664369893.406426) can0 18FEF8F9#0E00000000000000
(1664369893.406752) can0 18FEF8F9#0F00000000000000
(1664369893.415078) can0 18FEF8F9#1000000000000000
(1664369893.415315) can0 18FEF8F9#1100000000000000
(1664369893.415624) can0 18FEF8F9#1200000000000000
(1664369893.415921) can0 18FEF8F9#1300000000000000
(1664369893.515753) can0 0C249980#0000000000000000
(1664369893.535671) can0 14FF9980#01
(1664369893.575181) can0 18FEFAF9#0100000300000000
(1664369893.575470) can0 0C259980#0000000000000000
(1664369893.595279) can0 0C269980#0000000000000000
(1664369893.625335) can0 0C279980#0000000000000000
(1664369893.645345) can0 0C289980#0000000000000000
(1664369893.675714) can0 0C299980#0000000000000000
(1664369893.745231) can0 14FF9980#01
(1664369893.785125) can0 0C239980#0000000000000000
(1664369893.855963) can0 0C209980#10278200C409
(1664369893.955756) can0 14FF9980#01
(1664369893.975775) can0 0C009980#090F0000000000
(1664369893.975912) can0 0C219980#0000007000000000
(1664369894.025254) can0 0C2A9980#FFFFFFFFFFFFFFFF
(1664369894.036043) can0 0C019980#060050FFD0070000
(1664369894.045058) can0 0C229980#000000007D000000
(1664369894.084883) can0 18FEFAF9#0100000300000000
(1664369894.164906) can0 14FF9980#01
(1664369894.385057) can0 14FF9980#01
(1664369894.455280) can0 18FEF8F9#0108DD0600000000
(1664369894.465052) can0 18FEF8F9#0400000000000000
(1664369894.465338) can0 18FEF8F9#0500000000000000
(1664369894.465639) can0 18FEF8F9#062C9F0700000000
(1664369894.465921) can0 18FEF8F9#0700000000000000
(1664369894.504779) can0 18FEF8F9#1400000000000000
(1664369894.505049) can0 18FEF8F9#1500000000000000
(1664369894.505243) can0 18FEF8F9#1600000000000000
(1664369894.505565) can0 18FEF8F9#1700000000000000
(1664369894.515684) can0 18FEF8F9#1800000000000000
(1664369894.515892) can0 18FEF8F9#1900000000000000
(1664369894.516194) can0 18FEF8F9#1A00000000000000
(1664369894.516491) can0 18FEF8F9#1B00000000000000
(1664369894.525193) can0 18FEF8F9#1C00000000000000
(1664369894.525363) can0 18FEF8F9#1D00000000000000
(1664369894.525723) can0 18FEF8F9#1E00000000000000
(1664369894.525967) can0 18FEF8F9#1F00000000000000
(1664369894.526266) can0 0C249980#0000000000000000
(1664369894.535851) can0 18FEF8F9#2000000000000000
(1664369894.536043) can0 18FEF8F9#2100000000000000
(1664369894.536353) can0 18FEF8F9#2200000000000000
(1664369894.536639) can0 18FEF8F9#2300000000000000
(1664369894.545240) can0 18FEF8F9#0000000000000000
(1664369894.545459) can0 18FEF8F9#0200000000000000
(1664369894.545665) can0 18FEF8F9#0300000000000000
(1664369894.564846) can0 18FEF8F9#0800000000000000
(1664369894.565078) can0 18FEF8F9#0900000000000000
(1664369894.565365) can0 18FEF8F9#0A00000000000000
(1664369894.565563) can0 18FEF8F9#0B00000000000000
(1664369894.574945) can0 18FEF8F9#0C00000000000000
(1664369894.575416) can0 18FEF8F9#0D00000000000000
(1664369894.575605) can0 18FEF8F9#0E00000000000000
(1664369894.575845) can0 18FEF8F9#0F00000000000000
(1664369894.585076) can0 18FEF8F9#1000000000000000
(1664369894.585365) can0 18FEF8F9#1100000000000000
(1664369894.585743) can0 18FEF8F9#1200000000000000
(1664369894.585969) can0 18FEF8F9#1300000000000000
(1664369894.586242) can0 0C259980#0000000000000000
(1664369894.595515) can0 18FEFAF9#0100000300000000
(1664369894.595567) can0 14FF9980#01
(1664369894.605014) can0 0C269980#0000000000000000
(1664369894.635226) can0 0C279980#0000000000000000
(1664369894.655833) can0 0C289980#0000000000000000
(1664369894.684794) can0 0C299980#0000000000000000
(1664369894.795856) can0 0C239980#0000000000000000
(1664369894.805359) can0 14FF9980#01
(1664369894.865745) can0 0C209980#10278200C409
(1664369894.984984) can0 0C009980#090F0000000000
(1664369894.985229) can0 0C219980#0000007000000000
(1664369895.025558) can0 14FF9980#01
(1664369895.045730) can0 0C019980#060050FFD0070000
(1664369895.045953) can0 0C2A9980#FFFFFFFFFFFFFFFF
(1664369895.065110) can0 0C229980#000000007D000000
(1664369895.105043) can0 18FEFAF9#0100000300000000
(1664369895.234975) can0 14FF9980#01
(1664369895.445651) can0 14FF9980#01
(1664369895.545670) can0 0C249980#0000000000000000
(1664369895.605681) can0 0C259980#0000000000000000
(1664369895.615218) can0 18FEFAF9#0100000300000000
(1664369895.615697) can0 0C269980#0000000000000000
(1664369895.625107) can0 18FEF8F9#0108DD0600000000
(1664369895.635664) can0 18FEF8F9#0400000000000000
(1664369895.635898) can0 18FEF8F9#0500000000000000
(1664369895.636180) can0 18FEF8F9#062C9F0700000000
(1664369895.636366) can0 18FEF8F9#0700000000000000
(1664369895.645177) can0 0C279980#0000000000000000
(1664369895.655053) can0 14FF9980#01
(1664369895.665234) can0 0C289980#0000000000000000
(1664369895.675634) can0 18FEF8F9#1400000000000000
(1664369895.675882) can0 18FEF8F9#1500000000000000
(1664369895.676196) can0 18FEF8F9#1600000000000000
(1664369895.676499) can0 18FEF8F9#1700000000000000
(1664369895.685546) can0 18FEF8F9#1800000000000000
(1664369895.685746) can0 18FEF8F9#1900000000000000
(1664369895.686065) can0 18FEF8F9#1A00000000000000
(1664369895.686365) can0 18FEF8F9#1B00000000000000
(1664369895.699700) can0 18FEF8F9#1C00000000000000
(1664369895.699789) can0 18FEF8F9#1D00000000000000
(1664369895.700091) can0 18FEF8F9#1E00000000000000
(1664369895.700471) can0 18FEF8F9#1F00000000000000
(1664369895.705678) can0 18FEF8F9#2000000000000000
(1664369895.705847) can0 18FEF8F9#2100000000000000
(1664369895.706141) can0 18FEF8F9#2200000000000000
(1664369895.706440) can0 18FEF8F9#2300000000000000
(1664369895.706747) can0 0C299980#0000000000000000
(1664369895.715452) can0 18FEF8F9#0000000000000000
(1664369895.715752) can0 18FEF8F9#0200000000000000
(1664369895.715946) can0 18FEF8F9#0300000000000000
(1664369895.735574) can0 18FEF8F9#0800000000000000
(1664369895.735779) can0 18FEF8F9#0900000000000000
(1664369895.736143) can0 18FEF8F9#0A00000000000000
(1664369895.736420) can0 18FEF8F9#0B00000000000000
(1664369895.745175) can0 18FEF8F9#0C00000000000000
(1664369895.745217) can0 18FEF8F9#0D00000000000000
(1664369895.745494) can0 18FEF8F9#0E00000000000000
(1664369895.745807) can0 18FEF8F9#0F00000000000000
(1664369895.755667) can0 18FEF8F9#1000000000000000
(1664369895.755869) can0 18FEF8F9#1100000000000000
(1664369895.756144) can0 18FEF8F9#1200000000000000
(1664369895.756426) can0 18FEF8F9#1300000000000000
(1664369895.805267) can0 0C239980#0000000000000000
(1664369895.864932) can0 14FF9980#01
(1664369895.875661) can0 0C209980#10278200C409
(1664369896.002480) can0 0C009980#090F0000000000
(1664369896.002680) can0 0C219980#0000007000000000
(1664369896.055686) can0 0C019980#060050FFD0070000
(1664369896.055755) can0 0C2A9980#FFFFFFFFFFFFFFFF
(1664369896.075174) can0 0C229980#000000007D000000
(1664369896.075218) can0 14FF9980#01
(1664369896.125960) can0 18FEFAF9#0100000300000000
(1664369896.284675) can0 14FF9980#01
(1664369896.495494) can0 14FF9980#01
(1664369896.555459) can0 0C249980#0000000000000000
(1664369896.625112) can0 0C259980#0000000000000000
(1664369896.635237) can0 18FEFAF9#0100000300000000
(1664369896.635548) can0 0C269980#0000000000000000
(1664369896.654997) can0 0C279980#0000000000000000
(1664369896.675201) can0 0C289980#0000000000000000
(1664369896.704844) can0 14FF9980#01
(1664369896.715504) can0 0C299980#0000000000000000
(1664369896.802506) can0 18FEF8F9#0108DD0600000000
(1664369896.804914) can0 18FEF8F9#0400000000000000
(1664369896.805159) can0 18FEF8F9#0500000000000000
(1664369896.805453) can0 18FEF8F9#062C9F0700000000
(1664369896.805720) can0 18FEF8F9#0700000000000000
(1664369896.815750) can0 0C239980#0000000000000000
(1664369896.844692) can0 18FEF8F9#1400000000000000
(1664369896.844920) can0 18FEF8F9#1500000000000000
(1664369896.845245) can0 18FEF8F9#1600000000000000
(1664369896.845542) can0 18FEF8F9#1700000000000000
(1664369896.855033) can0 18FEF8F9#1800000000000000
(1664369896.855320) can0 18FEF8F9#1900000000000000
(1664369896.855623) can0 18FEF8F9#1A00000000000000
(1664369896.855922) can0 18FEF8F9#1B00000000000000
(1664369896.864852) can0 18FEF8F9#1C00000000000000
(1664369896.864979) can0 18FEF8F9#1D00000000000000
(1664369896.865332) can0 18FEF8F9#1E00000000000000
(1664369896.865621) can0 18FEF8F9#1F00000000000000
(1664369896.875224) can0 18FEF8F9#2000000000000000
(1664369896.875461) can0 18FEF8F9#2100000000000000
(1664369896.875777) can0 18FEF8F9#2200000000000000
(1664369896.876028) can0 18FEF8F9#2300000000000000
(1664369896.884906) can0 18FEF8F9#0000000000000000
(1664369896.885124) can0 18FEF8F9#0200000000000000
(1664369896.885449) can0 18FEF8F9#0300000000000000
(1664369896.885674) can0 0C209980#10278200C409
(1664369896.905078) can0 18FEF8F9#0800000000000000
(1664369896.905287) can0 18FEF8F9#0900000000000000
(1664369896.905573) can0 18FEF8F9#0A00000000000000
(1664369896.905882) can0 18FEF8F9#0B00000000000000
(1664369896.915234) can0 18FEF8F9#0C00000000000000
(1664369896.915448) can0 18FEF8F9#0D00000000000000
(1664369896.915721) can0 18FEF8F9#0E00000000000000
(1664369896.916029) can0 18FEF8F9#0F00000000000000
(1664369896.916081) can0 14FF9980#01
(1664369896.924884) can0 18FEF8F9#1000000000000000
(1664369896.925101) can0 18FEF8F9#1100000000000000
(1664369896.925377) can0 18FEF8F9#1200000000000000
(1664369896.925684) can0 18FEF8F9#1300000000000000
(1664369897.005205) can0 0C009980#090F0000000000
(1664369897.005246) can0 0C219980#0000007000000000
(1664369897.065024) can0 0C019980#060050FFD0070000
(1664369897.065277) can0 0C2A9980#FFFFFFFFFFFFFFFF
(1664369897.085080) can0 0C229980#000000007D000000
(1664369897.125209) can0 14FF9980#01
(1664369897.144850) can0 18FEFAF9#0100000300000000
(1664369897.335086) can0 14FF9980#01
(1664369897.545348) can0 14FF9980#01
(1664369897.564776) can0 0C249980#0000000000000000
(1664369897.635092) can0 0C259980#0000000000000000
(1664369897.645229) can0 0C269980#0000000000000000
(1664369897.655605) can0 18FEFAF9#0100000300000000
(1664369897.665649) can0 0C279980#0000000000000000
(1664369897.685237) can0 0C289980#0000000000000000
(1664369897.725606) can0 0C299980#0000000000000000
(1664369897.755041) can0 14FF9980#01
(1664369897.825481) can0 0C239980#0000000000000000
(1664369897.902708) can0 0C209980#10278200C409
(1664369897.965839) can0 18FEF8F9#0108DD0600000000
(1664369897.965881) can0 14FF9980#01
(1664369897.975158) can0 18FEF8F9#0400000000000000
(1664369897.975400) can0 18FEF8F9#0500000000000000
(1664369897.975681) can0 18FEF8F9#062C9F0700000000
(1664369897.975978) can0 18FEF8F9#0700000000000000
(1664369898.015251) can0 18FEF8F9#1400000000000000
(1664369898.015294) can0 18FEF8F9#1500000000000000
(1664369898.015559) can0 18FEF8F9#1600000000000000
(1664369898.015864) can0 18FEF8F9#1700000000000000
(1664369898.016170) can0 0C009980#090F0000000000
(1664369898.016397) can0 0C219980#0000007000000000
(1664369898.025215) can0 18FEF8F9#1800000000000000
(1664369898.025256) can0 18FEF8F9#1900000000000000
(1664369898.025491) can0 18FEF8F9#1A00000000000000
(1664369898.025785) can0 18FEF8F9#1B00000000000000
(1664369898.035627) can0 18FEF8F9#1C00000000000000
(1664369898.035840) can0 18FEF8F9#1D00000000000000
(1664369898.036130) can0 18FEF8F9#1E00000000000000
(1664369898.036433) can0 18FEF8F9#1F00000000000000
(1664369898.045070) can0 18FEF8F9#2000000000000000
(1664369898.045112) can0 18FEF8F9#2100000000000000
(1664369898.045507) can0 18FEF8F9#2200000000000000
(1664369898.045830) can0 18FEF8F9#2300000000000000
(1664369898.055632) can0 18FEF8F9#0000000000000000
(1664369898.055697) can0 18FEF8F9#0200000000000000
(1664369898.056110) can0 18FEF8F9#0300000000000000
(1664369898.075268) can0 18FEF8F9#0800000000000000
(1664369898.075459) can0 18FEF8F9#0900000000000000
(1664369898.075748) can0 18FEF8F9#0A00000000000000
(1664369898.076033) can0 18FEF8F9#0B00000000000000
(1664369898.076324) can0 0C019980#060050FFD0070000
(1664369898.076625) can0 0C2A9980#FFFFFFFFFFFFFFFF
(1664369898.085013) can0 18FEF8F9#0C00000000000000
(1664369898.085258) can0 18FEF8F9#0D00000000000000
(1664369898.085510) can0 18FEF8F9#0E00000000000000
(1664369898.085822) can0 18FEF8F9#0F00000000000000
(1664369898.095003) can0 18FEF8F9#1000000000000000
(1664369898.095246) can0 18FEF8F9#1100000000000000
(1664369898.095545) can0 18FEF8F9#1200000000000000
(1664369898.095828) can0 18FEF8F9#1300000000000000
(1664369898.096144) can0 0C229980#000000007D000000
(1664369898.165301) can0 18FEFAF9#0100000300000000
(1664369898.175384) can0 14FF9980#01
(1664369898.385004) can0 14FF9980#01
(1664369898.575076) can0 0C249980#0000000000000000
(1664369898.595353) can0 14FF9980#01
(1664369898.645094) can0 0C259980#0000000000000000
(1664369898.655057) can0 0C269980#0000000000000000
(1664369898.675364) can0 18FEFAF9#0100000300000000
(1664369898.675740) can0 0C279980#0000000000000000
(1664369898.694970) can0 0C289980#0000000000000000
(1664369898.735256) can0 0C299980#0000000000000000
(1664369898.805483) can0 14FF9980#01
(1664369898.835185) can0 0C239980#0000000000000000
(1664369898.904935) can0 0C209980#10278200C409
(1664369899.014995) can0 14FF9980#01
(1664369899.025020) can0 0C009980#090F0000000000
(1664369899.025316) can0 0C219980#0000007000000000
(1664369899.085648) can0 0C019980#060050FFD0070000
(1664369899.085853) can0 0C2A9980#FFFFFFFFFFFFFFFF
(1664369899.104993) can0 0C229980#000000007D000000
(1664369899.135152) can0 18FEF8F9#0108DD0600000000
(1664369899.144748) can0 18FEF8F9#0400000000000000
(1664369899.145044) can0 18FEF8F9#0500000000000000
(1664369899.145316) can0 18FEF8F9#062C9F0700000000
(1664369899.145696) can0 18FEF8F9#0700000000000000
(1664369899.184860) can0 18FEF8F9#1400000000000000
(1664369899.185102) can0 18FEF8F9#1500000000000000
(1664369899.185397) can0 18FEF8F9#1600000000000000
(1664369899.185696) can0 18FEF8F9#1700000000000000
(1664369899.185893) can0 18FEFAF9#0100000300000000
(1664369899.194928) can0 18FEF8F9#1800000000000000
(1664369899.195186) can0 18FEF8F9#1900000000000000
(1664369899.195526) can0 18FEF8F9#1A00000000000000
(1664369899.195718) can0 18FEF8F9#1B00000000000000
(1664369899.204886) can0 18FEF8F9#1C00000000000000
(1664369899.205117) can0 18FEF8F9#1D00000000000000
(1664369899.205490) can0 18FEF8F9#1E00000000000000
(1664369899.205715) can0 18FEF8F9#1F00000000000000
(1664369899.214926) can0 18FEF8F9#2000000000000000
(1664369899.215094) can0 18FEF8F9#2100000000000000
(1664369899.215474) can0 18FEF8F9#2200000000000000
(1664369899.215718) can0 18FEF8F9#2300000000000000
(1664369899.224934) can0 18FEF8F9#0000000000000000
(1664369899.224995) can0 18FEF8F9#0200000000000000
(1664369899.225307) can0 18FEF8F9#0300000000000000
(1664369899.225522) can0 14FF9980#01
(1664369899.244805) can0 18FEF8F9#0800000000000000
(1664369899.244967) can0 18FEF8F9#0900000000000000
(1664369899.245291) can0 18FEF8F9#0A00000000000000
(1664369899.245559) can0 18FEF8F9#0B00000000000000
(1664369899.255212) can0 18FEF8F9#0C00000000000000
(1664369899.255254) can0 18FEF8F9#0D00000000000000
(1664369899.255464) can0 18FEF8F9#0E00000000000000
(1664369899.255851) can0 18FEF8F9#0F00000000000000
(1664369899.264856) can0 18FEF8F9#1000000000000000
(1664369899.264934) can0 18FEF8F9#1100000000000000
(1664369899.265277) can0 18FEF8F9#1200000000000000
(1664369899.265537) can0 18FEF8F9#1300000000000000
(1664369899.435051) can0 14FF9980#01
(1664369899.585178) can0 0C249980#0000000000000000
(1664369899.644765) can0 14FF9980#01
(1664369899.655560) can0 0C259980#0000000000000000
(1664369899.665244) can0 0C269980#0000000000000000
(1664369899.684909) can0 0C279980#0000000000000000
(1664369899.695332) can0 18FEFAF9#0100000300000000
(1664369899.704942) can0 0C289980#0000000000000000
(1664369899.744992) can0 0C299980#0000000000000000
(1664369899.844809) can0 0C239980#0000000000000000
(1664369899.855593) can0 14FF9980#01
(1664369899.915527) can0 0C209980#10278200C409
(1664369900.035048) can0 0C009980#090F0000000000
(1664369900.035322) can0 0C219980#0000007000000000
(1664369900.065249) can0 14FF9980#01
(1664369900.104796) can0 0C019980#060050FFD0070000
(1664369900.105021) can0 0C2A9980#FFFFFFFFFFFFFFFF
(1664369900.115904) can0 0C229980#000000007D000000
(1664369900.205035) can0 18FEFAF9#0100000300000000
(1664369900.274967) can0 14FF9980#01
(1664369900.304631) can0 18FEF8F9#0108DD0600000000
(1664369900.315019) can0 18FEF8F9#0400000000000000
(1664369900.315231) can0 18FEF8F9#0500000000000000
(1664369900.315516) can0 18FEF8F9#062C9F0700000000
(1664369900.315806) can0 18FEF8F9#0700000000000000
(1664369900.355648) can0 18FEF8F9#1400000000000000
(1664369900.355866) can0 18FEF8F9#1500000000000000
(1664369900.356168) can0 18FEF8F9#1600000000000000
(1664369900.356495) can0 18FEF8F9#1700000000000000
(1664369900.364669) can0 18FEF8F9#1800000000000000
(1664369900.364903) can0 18FEF8F9#1900000000000000
(1664369900.365236) can0 18FEF8F9#1A00000000000000
(1664369900.365502) can0 18FEF8F9#1B00000000000000
(1664369900.375533) can0 18FEF8F9#1C00000000000000
(1664369900.375602) can0 18FEF8F9#1D00000000000000
(1664369900.376073) can0 18FEF8F9#1E00000000000000
(1664369900.376289) can0 18FEF8F9#1F00000000000000
(1664369900.384677) can0 18FEF8F9#2000000000000000
(1664369900.384898) can0 18FEF8F9#2100000000000000
(1664369900.385214) can0 18FEF8F9#2200000000000000
(1664369900.385475) can0 18FEF8F9#2300000000000000
(1664369900.395530) can0 18FEF8F9#0000000000000000
(1664369900.395746) can0 18FEF8F9#0200000000000000
(1664369900.396007) can0 18FEF8F9#0300000000000000
(1664369900.414950) can0 18FEF8F9#0800000000000000
(1664369900.415175) can0 18FEF8F9#0900000000000000
(1664369900.415496) can0 18FEF8F9#0A00000000000000
(1664369900.415788) can0 18FEF8F9#0B00000000000000
(1664369900.424645) can0 18FEF8F9#0C00000000000000
(1664369900.424906) can0 18FEF8F9#0D00000000000000
(1664369900.425176) can0 18FEF8F9#0E00000000000000
(1664369900.425486) can0 18FEF8F9#0F00000000000000
(1664369900.435547) can0 18FEF8F9#1000000000000000
(1664369900.435776) can0 18FEF8F9#1100000000000000
(1664369900.436055) can0 18FEF8F9#1200000000000000
(1664369900.436326) can0 18FEF8F9#1300000000000000
(1664369900.485435) can0 14FF9980#01
(1664369900.595771) can0 0C249980#0000000000000000
(1664369900.665460) can0 0C259980#0000000000000000
(1664369900.675464) can0 0C269980#0000000000000000
(1664369900.695466) can0 14FF9980#01
(1664369900.704739) can0 0C279980#0000000000000000
(1664369900.715552) can0 18FEFAF9#0100000300000000
(1664369900.715822) can0 0C289980#0000000000000000
(1664369900.755583) can0 0C299980#0000000000000000
(1664369900.864769) can0 0C239980#0000000000000000
(1664369900.904510) can0 14FF9980#01
(1664369900.924854) can0 0C209980#10278200C409
(1664369901.044981) can0 0C009980#090F0000000000
(1664369901.045237) can0 0C219980#0000007000000000
(1664369901.124819) can0 0C019980#060050FFD0070000
(1664369901.125061) can0 0C2A9980#FFFFFFFFFFFFFFFF
(1664369901.125231) can0 14FF9980#01
(1664369901.135701) can0 0C229980#000000007D000000
(1664369901.224675) can0 18FEFAF9#0100000300000000
(1664369901.335400) can0 14FF9980#01
(1664369901.475542) can0 18FEF8F9#0108DD0600000000
(1664369901.484485) can0 18FEF8F9#0400000000000000
(1664369901.484697) can0 18FEF8F9#0500000000000000
(1664369901.485050) can0 18FEF8F9#062C9F0700000000
(1664369901.485283) can0 18FEF8F9#0700000000000000
(1664369901.524741) can0 18FEF8F9#1400000000000000
(1664369901.524783) can0 18FEF8F9#1500000000000000
(1664369901.525025) can0 18FEF8F9#1600000000000000
(1664369901.525336) can0 18FEF8F9#1700000000000000
(1664369901.535174) can0 18FEF8F9#1800000000000000
(1664369901.535217) can0 18FEF8F9#1900000000000000
(1664369901.535545) can0 18FEF8F9#1A00000000000000
(1664369901.535857) can0 18FEF8F9#1B00000000000000
(1664369901.544618) can0 18FEF8F9#1C00000000000000
(1664369901.544826) can0 18FEF8F9#1D00000000000000
(1664369901.545121) can0 18FEF8F9#1E00000000000000
(1664369901.545396) can0 18FEF8F9#1F00000000000000
(1664369901.545588) can0 14FF9980#01
(1664369901.555474) can0 18FEF8F9#2000000000000000
(1664369901.555762) can0 18FEF8F9#2100000000000000
(1664369901.556014) can0 18FEF8F9#2200000000000000
(1664369901.556291) can0 18FEF8F9#2300000000000000
(1664369901.565181) can0 18FEF8F9#0000000000000000
(1664369901.565249) can0 18FEF8F9#0200000000000000
(1664369901.565647) can0 18FEF8F9#0300000000000000
(1664369901.584719) can0 18FEF8F9#0800000000000000
(1664369901.584962) can0 18FEF8F9#0900000000000000
(1664369901.585255) can0 18FEF8F9#0A00000000000000
(1664369901.585571) can0 18FEF8F9#0B00000000000000
(1664369901.596457) can0 18FEF8F9#0C00000000000000
(1664369901.596731) can0 18FEF8F9#0D00000000000000
(1664369901.597108) can0 18FEF8F9#0E00000000000000
(1664369901.597339) can0 18FEF8F9#0F00000000000000
(1664369901.605123) can0 18FEF8F9#1000000000000000
(1664369901.605375) can0 18FEF8F9#1100000000000000
(1664369901.605691) can0 18FEF8F9#1200000000000000
(1664369901.605959) can0 18FEF8F9#1300000000000000
(1664369901.606251) can0 0C249980#0000000000000000
(1664369901.675646) can0 0C259980#0000000000000000
(1664369901.685154) can0 0C269980#0000000000000000
(1664369901.715448) can0 0C279980#0000000000000000
(1664369901.724805) can0 0C289980#0000000000000000
(1664369901.744803) can0 18FEFAF9#0100000300000000
(1664369901.755470) can0 14FF9980#01
(1664369901.764654) can0 0C299980#0000000000000000
(1664369901.884908) can0 0C239980#0000000000000000
(1664369901.935509) can0 0C209980#10278200C409
(1664369901.964398) can0 14FF9980#01
(1664369902.055594) can0 0C009980#090F0000000000
(1664369902.055667) can0 0C219980#0000007000000000
(1664369902.145089) can0 0C019980#060050FFD0070000
(1664369902.145266) can0 0C2A9980#FFFFFFFFFFFFFFFF
(1664369902.155498) can0 0C229980#000000007D000000
(1664369902.184755) can0 14FF9980#01
(1664369902.264717) can0 18FEFAF9#0100000300000000
(1664369902.402153) can0 14FF9980#01
(1664369902.604795) can0 14FF9980#01
(1664369902.615566) can0 0C249980#0000000000000000
(1664369902.644765) can0 18FEF8F9#0108DD0600000000
(1664369902.654851) can0 18FEF8F9#0400000000000000
(1664369902.655086) can0 18FEF8F9#0500000000000000
(1664369902.655361) can0 18FEF8F9#062C9F0700000000
(1664369902.655621) can0 18FEF8F9#0700000000000000
(1664369902.684639) can0 0C259980#0000000000000000
(1664369902.695170) can0 18FEF8F9#1400000000000000
(1664369902.695213) can0 18FEF8F9#1500000000000000
(1664369902.695446) can0 18FEF8F9#1600000000000000
(1664369902.695832) can0 18FEF8F9#1700000000000000
(1664369902.696038) can0 0C269980#0000000000000000
(1664369902.704920) can0 18FEF8F9#1800000000000000
(1664369902.705140) can0 18FEF8F9#1900000000000000
(1664369902.705404) can0 18FEF8F9#1A00000000000000
(1664369902.705685) can0 18FEF8F9#1B00000000000000
(1664369902.715024) can0 18FEF8F9#1C00000000000000
(1664369902.715219) can0 18FEF8F9#1D00000000000000
(1664369902.715512) can0 18FEF8F9#1E00000000000000
(1664369902.715822) can0 18FEF8F9#1F00000000000000
(1664369902.724740) can0 18FEF8F9#2000000000000000
(1664369902.724967) can0 18FEF8F9#2100000000000000
(1664369902.725190) can0 18FEF8F9#2200000000000000
(1664369902.725463) can0 18FEF8F9#2300000000000000
(1664369902.725773) can0 0C279980#0000000000000000
(1664369902.735307) can0 18FEF8F9#0000000000000000
(1664369902.735350) can0 18FEF8F9#0200000000000000
(1664369902.735517) can0 18FEF8F9#0300000000000000
(1664369902.735824) can0 0C289980#0000000000000000
(1664369902.755282) can0 18FEF8F9#0800000000000000
(1664369902.755324) can0 18FEF8F9#0900000000000000
(1664369902.755573) can0 18FEF8F9#0A00000000000000
(1664369902.755773) can0 18FEF8F9#0B00000000000000
(1664369902.765285) can0 18FEF8F9#0C00000000000000
(1664369902.765326) can0 18FEF8F9#0D00000000000000
(1664369902.765626) can0 18FEF8F9#0E00000000000000
(1664369902.765823) can0 18FEF8F9#0F00000000000000
(1664369902.775270) can0 18FEF8F9#1000000000000000
(1664369902.775312) can0 18FEF8F9#1100000000000000
(1664369902.775572) can0 18FEF8F9#1200000000000000
(1664369902.775773) can0 18FEF8F9#1300000000000000
(1664369902.776096) can0 18FEFAF9#0100000300000000
(1664369902.784827) can0 0C299980#0000000000000000
(1664369902.825174) can0 14FF9980#01
(1664369902.895429) can0 0C239980#0000000000000000
(1664369902.945137) can0 0C209980#10278200C409
(1664369903.035727) can0 14FF9980#01
(1664369903.064883) can0 0C009980#090F0000000000
(1664369903.065038) can0 0C219980#0000007000000000
(1664369903.154926) can0 0C019980#060050FFD0070000
(1664369903.155119) can0 0C2A9980#FFFFFFFFFFFFFFFF
(1664369903.164841) can0 0C229980#000000007D000000
(1664369903.244492) can0 14FF9980#01
(1664369903.284715) can0 18FEFAF9#0100000300000000
(1664369903.455393) can0 14FF9980#01
(1664369903.625399) can0 0C249980#0000000000000000
(1664369903.668190) can0 14FF9980#01
(1664369903.695384) can0 0C259980#0000000000000000
(1664369903.705238) can0 0C269980#0000000000000000
(1664369903.735135) can0 0C279980#0000000000000000
(1664369903.745344) can0 0C289980#0000000000000000
(1664369903.795436) can0 18FEFAF9#0100000300000000
(1664369903.795657) can0 0C299980#0000000000000000
(1664369903.814968) can0 18FEF8F9#0108DD0600000000
(1664369903.825645) can0 18FEF8F9#0400000000000000
(1664369903.825866) can0 18FEF8F9#0500000000000000
(1664369903.826101) can0 18FEF8F9#062C9F0700000000
(1664369903.826403) can0 18FEF8F9#0700000000000000
(1664369903.865543) can0 18FEF8F9#1400000000000000
(1664369903.865623) can0 18FEF8F9#1500000000000000
(1664369903.866000) can0 18FEF8F9#1600000000000000
(1664369903.866299) can0 18FEF8F9#1700000000000000
(1664369903.875374) can0 18FEF8F9#1800000000000000
(1664369903.875511) can0 18FEF8F9#1900000000000000
(1664369903.875893) can0 18FEF8F9#1A00000000000000
(1664369903.876149) can0 18FEF8F9#1B00000000000000
(1664369903.876203) can0 14FF9980#01
(1664369903.885327) can0 18FEF8F9#1C00000000000000
(1664369903.885542) can0 18FEF8F9#1D00000000000000
(1664369903.885860) can0 18FEF8F9#1E00000000000000
(1664369903.886146) can0 18FEF8F9#1F00000000000000
(1664369903.895596) can0 18FEF8F9#2000000000000000
(1664369903.895836) can0 18FEF8F9#2100000000000000
(1664369903.896135) can0 18FEF8F9#2200000000000000
(1664369903.896408) can0 18FEF8F9#2300000000000000
(1664369903.905709) can0 18FEF8F9#0000000000000000
(1664369903.905964) can0 18FEF8F9#0200000000000000
(1664369903.906259) can0 18FEF8F9#0300000000000000
(1664369903.906549) can0 0C239980#0000000000000000
(1664369903.925385) can0 18FEF8F9#0800000000000000
(1664369903.925649) can0 18FEF8F9#0900000000000000
(1664369903.925941) can0 18FEF8F9#0A00000000000000
(1664369903.926228) can0 18FEF8F9#0B00000000000000
(1664369903.935485) can0 18FEF8F9#0C00000000000000
(1664369903.935727) can0 18FEF8F9#0D00000000000000
(1664369903.936034) can0 18FEF8F9#0E00000000000000
(1664369903.936302) can0 18FEF8F9#0F00000000000000
(1664369903.945244) can0 18FEF8F9#1000000000000000
(1664369903.945595) can0 18FEF8F9#1100000000000000
(1664369903.945837) can0 18FEF8F9#1200000000000000
(1664369903.946143) can0 18FEF8F9#1300000000000000
(1664369903.955383) can0 0C209980#10278200C409
(1664369904.078459) can0 0C009980#090F0000000000
(1664369904.078544) can0 0C219980#0000007000000000
(1664369904.085146) can0 14FF9980#01
(1664369904.164887) can0 0C019980#060050FFD0070000
(1664369904.164949) can0 0C2A9980#FFFFFFFFFFFFFFFF
(1664369904.174979) can0 0C229980#000000007D000000
(1664369904.294704) can0 14FF9980#01
(1664369904.305011) can0 18FEFAF9#0100000300000000
(1664369904.515510) can0 14FF9980#01
(1664369904.634992) can0 0C249980#0000000000000000
(1664369904.705487) can0 0C259980#0000000000000000
(1664369904.715456) can0 0C269980#0000000000000000
(1664369904.725111) can0 14FF9980#01
(1664369904.745524) can0 0C279980#0000000000000000
(1664369904.755450) can0 0C289980#0000000000000000
(1664369904.804761) can0 0C299980#0000000000000000
(1664369904.814936) can0 18FEFAF9#0100000300000000
(1664369904.915901) can0 0C239980#0000000000000000
(1664369904.935372) can0 14FF9980#01
(1664369904.965447) can0 0C209980#10278200C409
(1664369904.984600) can0 18FEF8F9#0108DD0600000000
(1664369904.995464) can0 18FEF8F9#0400000000000000
(1664369904.995529) can0 18FEF8F9#0500000000000000
(1664369904.995936) can0 18FEF8F9#062C9F0700000000
(1664369904.996206) can0 18FEF8F9#0700000000000000
(1664369905.035495) can0 18FEF8F9#1400000000000000
(1664369905.035704) can0 18FEF8F9#1500000000000000
(1664369905.036024) can0 18FEF8F9#1600000000000000
(1664369905.036286) can0 18FEF8F9#1700000000000000
(1664369905.044695) can0 18FEF8F9#1800000000000000
(1664369905.044909) can0 18FEF8F9#1900000000000000
(1664369905.045212) can0 18FEF8F9#1A00000000000000
(1664369905.045484) can0 18FEF8F9#1B00000000000000
(1664369905.055548) can0 18FEF8F9#1C00000000000000
(1664369905.055776) can0 18FEF8F9#1D00000000000000
(1664369905.056062) can0 18FEF8F9#1E00000000000000
(1664369905.056350) can0 18FEF8F9#1F00000000000000
(1664369905.064768) can0 18FEF8F9#2000000000000000
(1664369905.064811) can0 18FEF8F9#2100000000000000
(1664369905.065174) can0 18FEF8F9#2200000000000000
(1664369905.065509) can0 18FEF8F9#2300000000000000
(1664369905.075665) can0 18FEF8F9#0000000000000000
(1664369905.075886) can0 18FEF8F9#0200000000000000
(1664369905.076154) can0 18FEF8F9#0300000000000000
(1664369905.084676) can0 0C009980#090F0000000000
(1664369905.084931) can0 0C219980#0000007000000000
(1664369905.095457) can0 18FEF8F9#0800000000000000
(1664369905.095731) can0 18FEF8F9#0900000000000000
(1664369905.096015) can0 18FEF8F9#0A00000000000000
(1664369905.096307) can0 18FEF8F9#0B00000000000000
(1664369905.104535) can0 18FEF8F9#0C00000000000000
(1664369905.104797) can0 18FEF8F9#0D00000000000000
(1664369905.105128) can0 18FEF8F9#0E00000000000000
(1664369905.105392) can0 18FEF8F9#0F00000000000000
(1664369905.115497) can0 18FEF8F9#1000000000000000
(1664369905.115710) can0 18FEF8F9#1100000000000000
(1664369905.115979) can0 18FEF8F9#1200000000000000
(1664369905.116274) can0 18FEF8F9#1300000000000000
(1664369905.144571) can0 14FF9980#01
(1664369905.175462) can0 0C019980#060050FFD0070000
(1664369905.175705) can0 0C2A9980#FFFFFFFFFFFFFFFF
(1664369905.184696) can0 0C229980#000000007D000000
(1664369905.324463) can0 18FEFAF9#0100000300000000
(1664369905.355219) can0 14FF9980#01
(1664369905.564730) can0 14FF9980#01
(1664369905.645535) can0 0C249980#0000000000000000
(1664369905.715453) can0 0C259980#0000000000000000
(1664369905.724763) can0 0C269980#0000000000000000
(1664369905.765018) can0 0C279980#0000000000000000
(1664369905.774963) can0 0C289980#0000000000000000
(1664369905.784915) can0 14FF9980#01
(1664369905.815378) can0 0C299980#0000000000000000
(1664369905.844672) can0 18FEFAF9#0100000300000000
(1664369905.924776) can0 0C239980#0000000000000000
(1664369905.974924) can0 0C209980#10278200C409
(1664369905.995210) can0 14FF9980#01
(1664369906.104846) can0 0C009980#090F0000000000
(1664369906.105066) can0 0C219980#0000007000000000
(1664369906.155475) can0 18FEF8F9#0108DD0600000000
(1664369906.164666) can0 18FEF8F9#0400000000000000
(1664369906.164911) can0 18FEF8F9#0500000000000000
(1664369906.165211) can0 18FEF8F9#062C9F0700000000
(1664369906.165509) can0 18FEF8F9#0700000000000000
(1664369906.184826) can0 0C019980#060050FFD0070000
(1664369906.185046) can0 0C2A9980#FFFFFFFFFFFFFFFF
(1664369906.205564) can0 18FEF8F9#1400000000000000
(1664369906.205805) can0 18FEF8F9#1500000000000000
(1664369906.206153) can0 18FEF8F9#1600000000000000
(1664369906.206430) can0 18FEF8F9#1700000000000000
(1664369906.206762) can0 0C229980#000000007D000000
(1664369906.206824) can0 14FF9980#01
(1664369906.215492) can0 18FEF8F9#1800000000000000
(1664369906.215756) can0 18FEF8F9#1900000000000000
(1664369906.216078) can0 18FEF8F9#1A00000000000000
(1664369906.216350) can0 18FEF8F9#1B00000000000000
(1664369906.224573) can0 18FEF8F9#1C00000000000000
(1664369906.224849) can0 18FEF8F9#1D00000000000000
(1664369906.225173) can0 18FEF8F9#1E00000000000000
(1664369906.225467) can0 18FEF8F9#1F00000000000000
(1664369906.234887) can0 18FEF8F9#2000000000000000
(1664369906.235182) can0 18FEF8F9#2100000000000000
(1664369906.235391) can0 18FEF8F9#2200000000000000
(1664369906.235723) can0 18FEF8F9#2300000000000000
(1664369906.244939) can0 18FEF8F9#0000000000000000
(1664369906.245222) can0 18FEF8F9#0200000000000000
(1664369906.245440) can0 18FEF8F9#0300000000000000
(1664369906.264917) can0 18FEF8F9#0800000000000000
(1664369906.265240) can0 18FEF8F9#0900000000000000
(1664369906.265513) can0 18FEF8F9#0A00000000000000
(1664369906.265720) can0 18FEF8F9#0B00000000000000
(1664369906.274942) can0 18FEF8F9#0C00000000000000
(1664369906.275183) can0 18FEF8F9#0D00000000000000
(1664369906.275486) can0 18FEF8F9#0E00000000000000
(1664369906.275665) can0 18FEF8F9#0F00000000000000
(1664369906.284947) can0 18FEF8F9#1000000000000000
(1664369906.285197) can0 18FEF8F9#1100000000000000
(1664369906.285497) can0 18FEF8F9#1200000000000000
(1664369906.285722) can0 18FEF8F9#1300000000000000
(1664369906.355548) can0 18FEFAF9#0100000300000000
(1664369906.415160) can0 14FF9980#01
(1664369906.624483) can0 14FF9980#01
(1664369906.655228) can0 0C249980#0000000000000000
(1664369906.725406) can0 0C259980#0000000000000000
(1664369906.734994) can0 0C269980#0000000000000000
(1664369906.775414) can0 0C279980#0000000000000000
(1664369906.784792) can0 0C289980#0000000000000000
(1664369906.824873) can0 0C299980#0000000000000000
(1664369906.845312) can0 14FF9980#01
(1664369906.864785) can0 18FEFAF9#0100000300000000
(1664369906.934925) can0 0C239980#0000000000000000
(1664369906.985810) can0 0C209980#10278200C409
(1664369907.054844) can0 14FF9980#01
(1664369907.115373) can0 0C219980#0000007000000000
(1664369907.124516) can0 0C009980#090F0000000000
(1664369907.195686) can0 0C019980#060050FFD0070000
(1664369907.195909) can0 0C2A9980#FFFFFFFFFFFFFFFF
(1664369907.215472) can0 0C229980#000000007D000000
(1664369907.264765) can0 14FF9980#01
(1664369907.324764) can0 18FEF8F9#0108DD0600000000
(1664369907.335270) can0 18FEF8F9#0400000000000000
(1664369907.335538) can0 18FEF8F9#0500000000000000
(1664369907.335810) can0 18FEF8F9#062C9F0700000000
(1664369907.336103) can0 18FEF8F9#0700000000000000
(1664369907.375349) can0 18FEF8F9#1400000000000000
(1664369907.375570) can0 18FEF8F9#1500000000000000
(1664369907.376093) can0 18FEF8F9#1600000000000000
(1664369907.376289) can0 18FEF8F9#1700000000000000
(1664369907.376530) can0 18FEFAF9#0100000300000000
(1664369907.384781) can0 18FEF8F9#1800000000000000
(1664369907.385042) can0 18FEF8F9#1900000000000000
(1664369907.385340) can0 18FEF8F9#1A00000000000000
(1664369907.385660) can0 18FEF8F9#1B00000000000000
(1664369907.394799) can0 18FEF8F9#1C00000000000000
(1664369907.395145) can0 18FEF8F9#1D00000000000000
(1664369907.395467) can0 18FEF8F9#1E00000000000000
(1664369907.395767) can0 18FEF8F9#1F00000000000000
(1664369907.404449) can0 18FEF8F9#2000000000000000
(1664369907.404745) can0 18FEF8F9#2100000000000000
(1664369907.405017) can0 18FEF8F9#2200000000000000
(1664369907.405338) can0 18FEF8F9#2300000000000000
(1664369907.418464) can0 18FEF8F9#0000000000000000
(1664369907.418761) can0 18FEF8F9#0200000000000000
(1664369907.419053) can0 18FEF8F9#0300000000000000
(1664369907.435682) can0 18FEF8F9#0800000000000000
(1664369907.435746) can0 18FEF8F9#0900000000000000
(1664369907.436070) can0 18FEF8F9#0A00000000000000
(1664369907.436444) can0 18FEF8F9#0B00000000000000
(1664369907.444489) can0 18FEF8F9#0C00000000000000
(1664369907.444695) can0 18FEF8F9#0D00000000000000
(1664369907.444982) can0 18FEF8F9#0E00000000000000
(1664369907.445259) can0 18FEF8F9#0F00000000000000
(1664369907.455387) can0 18FEF8F9#1000000000000000
(1664369907.455466) can0 18FEF8F9#1100000000000000
(1664369907.455825) can0 18FEF8F9#1200000000000000
(1664369907.456044) can0 18FEF8F9#1300000000000000
(1664369907.475164) can0 14FF9980#01
(1664369907.664588) can0 0C249980#0000000000000000
(1664369907.688034) can0 14FF9980#01
(1664369907.735612) can0 0C259980#0000000000000000
(1664369907.744549) can0 0C269980#0000000000000000
(1664369907.784569) can0 0C279980#0000000000000000
(1664369907.795605) can0 0C289980#0000000000000000
(1664369907.835476) can0 0C299980#0000000000000000
(1664369907.884311) can0 18FEFAF9#0100000300000000
(1664369907.895205) can0 14FF9980#01
(1664369907.948346) can0 0C239980#0000000000000000
(1664369908.004825) can0 0C209980#10278200C409
(1664369908.104745) can0 14FF9980#01
(1664369908.124917) can0 0C219980#0000007000000000
(1664369908.134934) can0 0C009980#090F0000000000
(1664369908.204505) can0 0C019980#060050FFD0070000
(1664369908.204729) can0 0C2A9980#FFFFFFFFFFFFFFFF
(1664369908.224480) can0 0C229980#000000007D000000
(1664369908.315168) can0 14FF9980#01
(1664369908.395550) can0 18FEFAF9#0100000300000000
(1664369908.494851) can0 18FEF8F9#0108DD0600000000
(1664369908.504748) can0 18FEF8F9#0400000000000000
(1664369908.505015) can0 18FEF8F9#0500000000000000
(1664369908.505308) can0 18FEF8F9#062C9F0700000000
(1664369908.505614) can0 18FEF8F9#0700000000000000
(1664369908.524539) can0 14FF9980#01
(1664369908.544973) can0 18FEF8F9#1400000000000000
(1664369908.545192) can0 18FEF8F9#1500000000000000
(1664369908.545517) can0 18FEF8F9#1600000000000000
(1664369908.545801) can0 18FEF8F9#1700000000000000
(1664369908.555538) can0 18FEF8F9#1800000000000000
(1664369908.555580) can0 18FEF8F9#1900000000000000
(1664369908.555922) can0 18FEF8F9#1A00000000000000
(1664369908.556244) can0 18FEF8F9#1B00000000000000
(1664369908.565291) can0 18FEF8F9#1C00000000000000
(1664369908.565497) can0 18FEF8F9#1D00000000000000
(1664369908.565808) can0 18FEF8F9#1E00000000000000
(1664369908.566103) can0 18FEF8F9#1F00000000000000
(1664369908.574905) can0 18FEF8F9#2000000000000000
(1664369908.575126) can0 18FEF8F9#2100000000000000
(1664369908.575425) can0 18FEF8F9#2200000000000000
(1664369908.575724) can0 18FEF8F9#2300000000000000
(1664369908.585471) can0 18FEF8F9#0000000000000000
(1664369908.585534) can0 18FEF8F9#0200000000000000
(1664369908.586002) can0 18FEF8F9#0300000000000000
(1664369908.604605) can0 18FEF8F9#0800000000000000
(1664369908.604835) can0 18FEF8F9#0900000000000000
(1664369908.605137) can0 18FEF8F9#0A00000000000000
(1664369908.605427) can0 18FEF8F9#0B00000000000000
(1664369908.614885) can0 18FEF8F9#0C00000000000000
(1664369908.615123) can0 18FEF8F9#0D00000000000000
(1664369908.615471) can0 18FEF8F9#0E00000000000000
(1664369908.615719) can0 18FEF8F9#0F00000000000000
(1664369908.624565) can0 18FEF8F9#1000000000000000
(1664369908.624805) can0 18FEF8F9#1100000000000000
(1664369908.625110) can0 18FEF8F9#1200000000000000
(1664369908.625402) can0 18FEF8F9#1300000000000000
(1664369908.674872) can0 0C249980#0000000000000000
(1664369908.734832) can0 14FF9980#01
(1664369908.744840) can0 0C259980#0000000000000000
(1664369908.765308) can0 0C269980#0000000000000000
(1664369908.795239) can0 0C279980#0000000000000000
(1664369908.805223) can0 0C289980#0000000000000000
(1664369908.844474) can0 0C299980#0000000000000000
(1664369908.904682) can0 18FEFAF9#0100000300000000
(1664369908.946696) can0 14FF9980#01
(1664369908.964853) can0 0C239980#0000000000000000
(1664369909.015328) can0 0C209980#10278200C409
(1664369909.135326) can0 0C219980#0000007000000000
(1664369909.144451) can0 0C009980#090F0000000000
(1664369909.155419) can0 14FF9980#01
(1664369909.224801) can0 0C019980#060050FFD0070000
(1664369909.225019) can0 0C2A9980#FFFFFFFFFFFFFFFF
(1664369909.235166) can0 0C229980#000000007D000000
(1664369909.364424) can0 14FF9980#01
(1664369909.424417) can0 18FEFAF9#0100000300000000
(1664369909.575356) can0 14FF9980#01
(1664369909.664677) can0 18FEF8F9#0108DD0600000000
(1664369909.675152) can0 18FEF8F9#0400000000000000
(1664369909.675434) can0 18FEF8F9#0500000000000000
(1664369909.675703) can0 18FEF8F9#062C9F0700000000
(1664369909.676027) can0 18FEF8F9#0700000000000000
(1664369909.687428) can0 0C249980#0000000000000000
(1664369909.715393) can0 18FEF8F9#1400000000000000
(1664369909.715458) can0 18FEF8F9#1500000000000000
(1664369909.715932) can0 18FEF8F9#1600000000000000
(1664369909.716174) can0 18FEF8F9#1700000000000000
(1664369909.724814) can0 18FEF8F9#1800000000000000
(1664369909.725051) can0 18FEF8F9#1900000000000000
(1664369909.725353) can0 18FEF8F9#1A00000000000000
(1664369909.725653) can0 18FEF8F9#1B00000000000000
(1664369909.735341) can0 18FEF8F9#1C00000000000000
(1664369909.735551) can0 18FEF8F9#1D00000000000000
(1664369909.735832) can0 18FEF8F9#1E00000000000000
(1664369909.736142) can0 18FEF8F9#1F00000000000000
(1664369909.744822) can0 18FEF8F9#2000000000000000
(1664369909.745058) can0 18FEF8F9#2100000000000000
(1664369909.745330) can0 18FEF8F9#2200000000000000
(1664369909.745630) can0 18FEF8F9#2300000000000000
(1664369909.755279) can0 18FEF8F9#0000000000000000
(1664369909.755554) can0 18FEF8F9#0200000000000000
(1664369909.755855) can0 18FEF8F9#0300000000000000
(1664369909.756153) can0 0C259980#0000000000000000
(1664369909.775331) can0 18FEF8F9#0800000000000000
(1664369909.775577) can0 18FEF8F9#0900000000000000
(1664369909.775882) can0 18FEF8F9#0A00000000000000
(1664369909.776209) can0 18FEF8F9#0B00000000000000
(1664369909.776455) can0 0C269980#0000000000000000
(1664369909.785308) can0 18FEF8F9#0C00000000000000
(1664369909.785557) can0 18FEF8F9#0D00000000000000
(1664369909.785857) can0 18FEF8F9#0E00000000000000
(1664369909.786156) can0 18FEF8F9#0F00000000000000
(1664369909.786216) can0 14FF9980#01
(1664369909.795309) can0 18FEF8F9#1000000000000000
(1664369909.795554) can0 18FEF8F9#1100000000000000
(1664369909.795862) can0 18FEF8F9#1200000000000000
(1664369909.796127) can0 18FEF8F9#1300000000000000
(1664369909.804886) can0 0C279980#0000000000000000
(1664369909.815262) can0 0C289980#0000000000000000
(1664369909.864907) can0 0C299980#0000000000000000
(1664369909.944310) can0 18FEFAF9#0100000300000000
(1664369909.975445) can0 0C239980#0000000000000000
(1664369909.995258) can0 14FF9980#01
(1664369910.024213) can0 0C209980#10278200C409
(1664369910.151576) can0 0C219980#0000007000000000
(1664369910.155469) can0 0C009980#090F0000000000
(1664369910.204811) can0 14FF9980#01
(1664369910.234866) can0 0C019980#060050FFD0070000
(1664369910.235045) can0 0C2A9980#FFFFFFFFFFFFFFFF
(1664369910.249984) can0 0C229980#000000007D000000
(1664369910.415219) can0 14FF9980#01
(1664369910.455294) can0 18FEFAF9#0100000300000000
(1664369910.624488) can0 14FF9980#01
(1664369910.698450) can0 0C249980#0000000000000000
(1664369910.764485) can0 0C259980#0000000000000000
(1664369910.784419) can0 0C269980#0000000000000000
(1664369910.815225) can0 0C279980#0000000000000000
(1664369910.824459) can0 0C289980#0000000000000000
(1664369910.834780) can0 18FEF8F9#0108DD0600000000
(1664369910.835098) can0 14FF9980#01
(1664369910.845807) can0 18FEF8F9#0400000000000000
(1664369910.846049) can0 18FEF8F9#0500000000000000
(1664369910.846328) can0 18FEF8F9#062C9F0700000000
(1664369910.846654) can0 18FEF8F9#0700000000000000
(1664369910.875224) can0 0C299980#0000000000000000
(1664369910.885261) can0 18FEF8F9#1400000000000000
(1664369910.885372) can0 18FEF8F9#1500000000000000
(1664369910.885748) can0 18FEF8F9#1600000000000000
(1664369910.886054) can0 18FEF8F9#1700000000000000
(1664369910.895347) can0 18FEF8F9#1800000000000000
(1664369910.895457) can0 18FEF8F9#1900000000000000
(1664369910.895859) can0 18FEF8F9#1A00000000000000
(1664369910.896135) can0 18FEF8F9#1B00000000000000
(1664369910.904917) can0 18FEF8F9#1C00000000000000
(1664369910.904983) can0 18FEF8F9#1D00000000000000
(1664369910.905447) can0 18FEF8F9#1E00000000000000
(1664369910.905592) can0 18FEF8F9#1F00000000000000
(1664369910.915492) can0 18FEF8F9#2000000000000000
(1664369910.915556) can0 18FEF8F9#2100000000000000
(1664369910.915975) can0 18FEF8F9#2200000000000000
(1664369910.916252) can0 18FEF8F9#2300000000000000
(1664369910.924801) can0 18FEF8F9#0000000000000000
(1664369910.925024) can0 18FEF8F9#0200000000000000
(1664369910.925304) can0 18FEF8F9#0300000000000000
(1664369910.944809) can0 18FEF8F9#0800000000000000
(1664369910.944876) can0 18FEF8F9#0900000000000000
(1664369910.945368) can0 18FEF8F9#0A00000000000000
(1664369910.945576) can0 18FEF8F9#0B00000000000000
(1664369910.955374) can0 18FEF8F9#0C00000000000000
(1664369910.955589) can0 18FEF8F9#0D00000000000000
(1664369910.955859) can0 18FEF8F9#0E00000000000000
(1664369910.956196) can0 18FEF8F9#0F00000000000000
(1664369910.964916) can0 18FEF8F9#1000000000000000
(1664369910.964979) can0 18FEF8F9#1100000000000000
(1664369910.965405) can0 18FEF8F9#1200000000000000
(1664369910.965647) can0 18FEF8F9#1300000000000000
(1664369910.965970) can0 18FEFAF9#0100000300000000
(1664369910.984507) can0 0C239980#0000000000000000
(1664369911.035298) can0 0C209980#10278200C409
(1664369911.044448) can0 14FF9980#01
(1664369911.155441) can0 0C219980#0000007000000000
(1664369911.164554) can0 0C009980#090F0000000000
(1664369911.248199) can0 0C019980#060050FFD0070000
(1664369911.248386) can0 0C2A9980#FFFFFFFFFFFFFFFF
(1664369911.255482) can0 0C229980#000000007D000000
(1664369911.255525) can0 14FF9980#01
(1664369911.464634) can0 14FF9980#01
(1664369911.484647) can0 18FEFAF9#0100000300000000
(1664369911.674591) can0 14FF9980#01
(1664369911.704212) can0 0C249980#0000000000000000
(1664369911.784735) can0 0C259980#0000000000000000
(1664369911.804761) can0 0C269980#0000000000000000
(1664369911.824866) can0 0C279980#0000000000000000
(1664369911.852113) can0 0C289980#0000000000000000
(1664369911.884666) can0 0C299980#0000000000000000
(1664369911.884735) can0 14FF9980#01
(1664369911.995806) can0 18FEFAF9#0100000300000000
(1664369911.995850) can0 0C239980#0000000000000000
(1664369912.004816) can0 18FEF8F9#0108DD0600000000
(1664369912.015152) can0 18FEF8F9#0400000000000000
(1664369912.015434) can0 18FEF8F9#0500000000000000
(1664369912.015628) can0 18FEF8F9#062C9F0700000000
(1664369912.016031) can0 18FEF8F9#0700000000000000
(1664369912.051966) can0 0C209980#10278200C409
(1664369912.055245) can0 18FEF8F9#1400000000000000
(1664369912.055503) can0 18FEF8F9#1500000000000000
(1664369912.055796) can0 18FEF8F9#1600000000000000
(1664369912.056071) can0 18FEF8F9#1700000000000000
(1664369912.064497) can0 18FEF8F9#1800000000000000
(1664369912.064797) can0 18FEF8F9#1900000000000000
(1664369912.065075) can0 18FEF8F9#1A00000000000000
(1664369912.065369) can0 18FEF8F9#1B00000000000000
(1664369912.075275) can0 18FEF8F9#1C00000000000000
(1664369912.075396) can0 18FEF8F9#1D00000000000000
(1664369912.075862) can0 18FEF8F9#1E00000000000000
(1664369912.075993) can0 18FEF8F9#1F00000000000000
(1664369912.084811) can0 18FEF8F9#2000000000000000
(1664369912.084991) can0 18FEF8F9#2100000000000000
(1664369912.085367) can0 18FEF8F9#2200000000000000
(1664369912.085652) can0 18FEF8F9#2300000000000000
(1664369912.095259) can0 18FEF8F9#0000000000000000
(1664369912.095445) can0 18FEF8F9#0200000000000000
(1664369912.095817) can0 18FEF8F9#0300000000000000
(1664369912.095872) can0 14FF9980#01
(1664369912.115377) can0 18FEF8F9#0800000000000000
(1664369912.115428) can0 18FEF8F9#0900000000000000
(1664369912.115801) can0 18FEF8F9#0A00000000000000
(1664369912.116096) can0 18FEF8F9#0B00000000000000
(1664369912.124824) can0 18FEF8F9#0C00000000000000
(1664369912.124948) can0 18FEF8F9#0D00000000000000
(1664369912.125320) can0 18FEF8F9#0E00000000000000
(1664369912.125624) can0 18FEF8F9#0F00000000000000
(1664369912.135358) can0 18FEF8F9#1000000000000000
(1664369912.135433) can0 18FEF8F9#1100000000000000
(1664369912.135881) can0 18FEF8F9#1200000000000000
(1664369912.136063) can0 18FEF8F9#1300000000000000
(1664369912.164520) can0 0C219980#0000007000000000
(1664369912.184339) can0 0C009980#090F0000000000
(1664369912.255424) can0 0C019980#060050FFD0070000
(1664369912.255543) can0 0C2A9980#FFFFFFFFFFFFFFFF
(1664369912.264430) can0 0C229980#000000007D000000
(1664369912.304152) can0 14FF9980#01
(1664369912.504399) can0 18FEFAF9#0100000300000000
(1664369912.515063) can0 14FF9980#01
(1664369912.715353) can0 0C249980#0000000000000000
(1664369912.724161) can0 14FF9980#01
(1664369912.794753) can0 0C259980#0000000000000000
(1664369912.815378) can0 0C269980#0000000000000000
(1664369912.835354) can0 0C279980#0000000000000000
(1664369912.864493) can0 0C289980#0000000000000000
(1664369912.894823) can0 0C299980#0000000000000000
(1664369912.935336) can0 14FF9980#01
(1664369913.004407) can0 0C239980#0000000000000000
(1664369913.015225) can0 18FEFAF9#0100000300000000
(1664369913.064383) can0 0C209980#10278200C409
(1664369913.144520) can0 14FF9980#01
(1664369913.174791) can0 18FEF8F9#0108DD0600000000
(1664369913.184400) can0 18FEF8F9#0400000000000000
(1664369913.184699) can0 18FEF8F9#0500000000000000
(1664369913.184980) can0 18FEF8F9#062C9F0700000000
(1664369913.185271) can0 18FEF8F9#0700000000000000
(1664369913.185552) can0 0C219980#0000007000000000
(1664369913.195171) can0 0C009980#090F0000000000
(1664369913.224471) can0 18FEF8F9#1400000000000000
(1664369913.224728) can0 18FEF8F9#1500000000000000
(1664369913.225024) can0 18FEF8F9#1600000000000000
(1664369913.225328) can0 18FEF8F9#1700000000000000
(1664369913.234652) can0 18FEF8F9#1800000000000000
(1664369913.235023) can0 18FEF8F9#1900000000000000
(1664369913.235319) can0 18FEF8F9#1A00000000000000
(1664369913.235617) can0 18FEF8F9#1B00000000000000
(1664369913.244539) can0 18FEF8F9#1C00000000000000
(1664369913.244726) can0 18FEF8F9#1D00000000000000
(1664369913.245048) can0 18FEF8F9#1E00000000000000
(1664369913.245377) can0 18FEF8F9#1F00000000000000
(1664369913.255131) can0 18FEF8F9#2000000000000000
(1664369913.255429) can0 18FEF8F9#2100000000000000
(1664369913.255729) can0 18FEF8F9#2200000000000000
(1664369913.256007) can0 18FEF8F9#2300000000000000
(1664369913.264432) can0 18FEF8F9#0000000000000000
(1664369913.264704) can0 18FEF8F9#0200000000000000
(1664369913.265018) can0 18FEF8F9#0300000000000000
(1664369913.265297) can0 0C019980#060050FFD0070000
(1664369913.265571) can0 0C2A9980#FFFFFFFFFFFFFFFF
(1664369913.284991) can0 18FEF8F9#0800000000000000
(1664369913.285246) can0 18FEF8F9#0900000000000000
(1664369913.285539) can0 18FEF8F9#0A00000000000000
(1664369913.285824) can0 18FEF8F9#0B00000000000000
(1664369913.286124) can0 0C229980#000000007D000000
(1664369913.295226) can0 18FEF8F9#0C00000000000000
(1664369913.295499) can0 18FEF8F9#0D00000000000000
(1664369913.295802) can0 18FEF8F9#0E00000000000000
(1664369913.296067) can0 18FEF8F9#0F00000000000000
(1664369913.304780) can0 18FEF8F9#1000000000000000
(1664369913.305025) can0 18FEF8F9#1100000000000000
(1664369913.305327) can0 18FEF8F9#1200000000000000
(1664369913.305614) can0 18FEF8F9#1300000000000000
(1664369913.355115) can0 14FF9980#01
(1664369913.524689) can0 18FEFAF9#0100000300000000
(1664369913.564880) can0 14FF9980#01
(1664369913.724454) can0 0C249980#0000000000000000
(1664369913.774897) can0 14FF9980#01
(1664369913.804407) can0 0C259980#0000000000000000
(1664369913.825044) can0 0C269980#0000000000000000
(1664369913.844700) can0 0C279980#0000000000000000
(1664369913.884167) can0 0C289980#0000000000000000
(1664369913.904236) can0 0C299980#0000000000000000
(1664369913.984235) can0 14FF9980#01
(1664369914.024269) can0 0C239980#0000000000000000
(1664369914.035052) can0 18FEFAF9#0100000300000000
(1664369914.075085) can0 0C209980#10278200C409
(1664369914.194561) can0 14FF9980#01
(1664369914.204393) can0 0C009980#090F0000000000
(1664369914.204671) can0 0C219980#0000007000000000
(1664369914.275399) can0 0C019980#060050FFD0070000
(1664369914.275631) can0 0C2A9980#FFFFFFFFFFFFFFFF
(1664369914.295230) can0 0C229980#000000007D000000
(1664369914.346152) can0 18FEF8F9#0108DD0600000000
(1664369914.355239) can0 18FEF8F9#0400000000000000
(1664369914.355482) can0 18FEF8F9#0500000000000000
(1664369914.355785) can0 18FEF8F9#062C9F0700000000
(1664369914.356059) can0 18FEF8F9#0700000000000000
(1664369914.395353) can0 18FEF8F9#1400000000000000
(1664369914.395574) can0 18FEF8F9#1500000000000000
(1664369914.395884) can0 18FEF8F9#1600000000000000
(1664369914.396179) can0 18FEF8F9#1700000000000000
(1664369914.404606) can0 18FEF8F9#1800000000000000
(1664369914.404911) can0 18FEF8F9#1900000000000000
(1664369914.405200) can0 18FEF8F9#1A00000000000000
(1664369914.405511) can0 18FEF8F9#1B00000000000000
(1664369914.405563) can0 14FF9980#01
(1664369914.415197) can0 18FEF8F9#1C00000000000000
(1664369914.415455) can0 18FEF8F9#1D00000000000000
(1664369914.415808) can0 18FEF8F9#1E00000000000000
(1664369914.416048) can0 18FEF8F9#1F00000000000000
(1664369914.424506) can0 18FEF8F9#2000000000000000
(1664369914.424808) can0 18FEF8F9#2100000000000000
(1664369914.425062) can0 18FEF8F9#2200000000000000
(1664369914.425387) can0 18FEF8F9#2300000000000000
(1664369914.435127) can0 18FEF8F9#0000000000000000
(1664369914.435400) can0 18FEF8F9#0200000000000000
(1664369914.435625) can0 18FEF8F9#0300000000000000
(1664369914.454474) can0 18FEF8F9#0800000000000000
(1664369914.454772) can0 18FEF8F9#0900000000000000
(1664369914.455070) can0 18FEF8F9#0A00000000000000
(1664369914.455368) can0 18FEF8F9#0B00000000000000
(1664369914.463966) can0 18FEF8F9#0C00000000000000
(1664369914.464257) can0 18FEF8F9#0D00000000000000
(1664369914.464574) can0 18FEF8F9#0E00000000000000
(1664369914.464867) can0 18FEF8F9#0F00000000000000
(1664369914.474548) can0 18FEF8F9#1000000000000000
(1664369914.474800) can0 18FEF8F9#1100000000000000
(1664369914.475098) can0 18FEF8F9#1200000000000000
(1664369914.475318) can0 18FEF8F9#1300000000000000
(1664369914.544183) can0 18FEFAF9#0100000300000000
(1664369914.614648) can0 14FF9980#01
(1664369914.751946) can0 0C249980#0000000000000000
(1664369914.815359) can0 0C259980#0000000000000000
(1664369914.824386) can0 14FF9980#01
(1664369914.834914) can0 0C269980#0000000000000000
(1664369914.855354) can0 0C279980#0000000000000000
(1664369914.895325) can0 0C289980#0000000000000000
(1664369914.915378) can0 0C299980#0000000000000000
(1664369915.035196) can0 0C239980#0000000000000000
(1664369915.035238) can0 14FF9980#01
(1664369915.067630) can0 18FEFAF9#0100000300000000
(1664369915.084514) can0 0C209980#10278200C409
(1664369915.224372) can0 0C009980#090F0000000000
(1664369915.224629) can0 0C219980#0000007000000000
(1664369915.244465) can0 14FF9980#01
(1664369915.284551) can0 0C019980#060050FFD0070000
(1664369915.284823) can0 0C2A9980#FFFFFFFFFFFFFFFF
(1664369915.304500) can0 0C229980#000000007D000000
(1664369915.454992) can0 14FF9980#01
(1664369915.515152) can0 18FEF8F9#0108DD0600000000
(1664369915.524103) can0 18FEF8F9#0400000000000000
(1664369915.524493) can0 18FEF8F9#0500000000000000
(1664369915.524800) can0 18FEF8F9#062C9F0700000000
(1664369915.525068) can0 18FEF8F9#0700000000000000
(1664369915.564821) can0 18FEF8F9#1400000000000000
(1664369915.564864) can0 18FEF8F9#1500000000000000
(1664369915.565200) can0 18FEF8F9#1600000000000000
(1664369915.565475) can0 18FEF8F9#1700000000000000
(1664369915.575376) can0 18FEF8F9#1800000000000000
(1664369915.575428) can0 18FEF8F9#1900000000000000
(1664369915.575835) can0 18FEF8F9#1A00000000000000
(1664369915.576017) can0 18FEF8F9#1B00000000000000
(1664369915.576319) can0 18FEFAF9#0100000300000000
(1664369915.584862) can0 18FEF8F9#1C00000000000000
(1664369915.584905) can0 18FEF8F9#1D00000000000000
(1664369915.585205) can0 18FEF8F9#1E00000000000000
(1664369915.585509) can0 18FEF8F9#1F00000000000000
(1664369915.600364) can0 18FEF8F9#2000000000000000
(1664369915.600643) can0 18FEF8F9#2100000000000000
(1664369915.600949) can0 18FEF8F9#2200000000000000
(1664369915.601251) can0 18FEF8F9#2300000000000000
(1664369915.604430) can0 18FEF8F9#0000000000000000
(1664369915.604645) can0 18FEF8F9#0200000000000000
(1664369915.604847) can0 18FEF8F9#0300000000000000
(1664369915.624180) can0 18FEF8F9#0800000000000000
(1664369915.624589) can0 18FEF8F9#0900000000000000
(1664369915.624758) can0 18FEF8F9#0A00000000000000
(1664369915.625050) can0 18FEF8F9#0B00000000000000
(1664369915.634574) can0 18FEF8F9#0C00000000000000
(1664369915.634800) can0 18FEF8F9#0D00000000000000
(1664369915.635090) can0 18FEF8F9#0E00000000000000
(1664369915.635289) can0 18FEF8F9#0F00000000000000
(1664369915.644128) can0 18FEF8F9#1000000000000000
(1664369915.644431) can0 18FEF8F9#1100000000000000
(1664369915.644716) can0 18FEF8F9#1200000000000000
(1664369915.645002) can0 18FEF8F9#1300000000000000
(1664369915.664137) can0 14FF9980#01
(1664369915.755371) can0 0C249980#0000000000000000
(1664369915.824429) can0 0C259980#0000000000000000
(1664369915.845362) can0 0C269980#0000000000000000
(1664369915.864535) can0 0C279980#0000000000000000
(1664369915.884384) can0 14FF9980#01
(1664369915.904638) can0 0C289980#0000000000000000
(1664369915.924756) can0 0C299980#0000000000000000
(1664369916.044297) can0 0C239980#0000000000000000
(1664369916.084192) can0 18FEFAF9#0100000300000000
(1664369916.094988) can0 0C209980#10278200C409
(1664369916.104324) can0 14FF9980#01
(1664369916.234665) can0 0C009980#090F0000000000
(1664369916.234930) can0 0C219980#0000007000000000
(1664369916.304141) can0 0C019980#060050FFD0070000
(1664369916.304269) can0 0C2A9980#FFFFFFFFFFFFFFFF
(1664369916.314666) can0 0C229980#000000007D000000
(1664369916.324219) can0 14FF9980#01
(1664369916.534979) can0 14FF9980#01
(1664369916.601937) can0 18FEFAF9#0100000300000000
(1664369916.684525) can0 18FEF8F9#0108DD0600000000
(1664369916.701990) can0 18FEF8F9#0400000000000000
(1664369916.702080) can0 18FEF8F9#0500000000000000
(1664369916.702460) can0 18FEF8F9#062C9F0700000000
(1664369916.702740) can0 18FEF8F9#0700000000000000
(1664369916.734804) can0 18FEF8F9#1400000000000000
(1664369916.734847) can0 18FEF8F9#1500000000000000
(1664369916.735086) can0 18FEF8F9#1600000000000000
(1664369916.735390) can0 18FEF8F9#1700000000000000
(1664369916.744334) can0 18FEF8F9#1800000000000000
(1664369916.744376) can0 18FEF8F9#1900000000000000
(1664369916.744681) can0 18FEF8F9#1A00000000000000
(1664369916.744954) can0 18FEF8F9#1B00000000000000
(1664369916.745038) can0 14FF9980#01
(1664369916.754673) can0 18FEF8F9#1C00000000000000
(1664369916.754776) can0 18FEF8F9#1D00000000000000
(1664369916.755221) can0 18FEF8F9#1E00000000000000
(1664369916.755400) can0 18FEF8F9#1F00000000000000
(1664369916.764268) can0 18FEF8F9#2000000000000000
(1664369916.764547) can0 18FEF8F9#2100000000000000
(1664369916.764822) can0 18FEF8F9#2200000000000000
(1664369916.765095) can0 18FEF8F9#2300000000000000
(1664369916.765431) can0 0C249980#0000000000000000
(1664369916.774560) can0 18FEF8F9#0000000000000000
(1664369916.774671) can0 18FEF8F9#0200000000000000
(1664369916.775127) can0 18FEF8F9#0300000000000000
(1664369916.795003) can0 18FEF8F9#0800000000000000
(1664369916.795280) can0 18FEF8F9#0900000000000000
(1664369916.795547) can0 18FEF8F9#0A00000000000000
(1664369916.795863) can0 18FEF8F9#0B00000000000000
(1664369916.804295) can0 18FEF8F9#0C00000000000000
(1664369916.804488) can0 18FEF8F9#0D00000000000000
(1664369916.804865) can0 18FEF8F9#0E00000000000000
(1664369916.805105) can0 18FEF8F9#0F00000000000000
(1664369916.815344) can0 18FEF8F9#1000000000000000
(1664369916.815387) can0 18FEF8F9#1100000000000000
(1664369916.815662) can0 18FEF8F9#1200000000000000
(1664369916.815956) can0 18FEF8F9#1300000000000000
(1664369916.835380) can0 0C259980#0000000000000000
(1664369916.854830) can0 0C269980#0000000000000000
(1664369916.875075) can0 0C279980#0000000000000000
(1664369916.915255) can0 0C289980#0000000000000000
(1664369916.935066) can0 0C299980#0000000000000000
(1664369916.955343) can0 14FF9980#01
(1664369917.055373) can0 0C239980#0000000000000000
(1664369917.104454) can0 18FEFAF9#0100000300000000
(1664369917.104497) can0 0C209980#10278200C409
(1664369917.164461) can0 14FF9980#01
(1664369917.244279) can0 0C009980#090F0000000000
(1664369917.244532) can0 0C219980#0000007000000000
(1664369917.315238) can0 0C019980#060050FFD0070000
(1664369917.315505) can0 0C2A9980#FFFFFFFFFFFFFFFF
(1664369917.324318) can0 0C229980#000000007D000000
(1664369917.375267) can0 14FF9980#01
(1664369917.584027) can0 14FF9980#01
(1664369917.615040) can0 18FEFAF9#0100000300000000
(1664369917.775109) can0 0C249980#0000000000000000
(1664369917.795175) can0 14FF9980#01
(1664369917.851933) can0 0C259980#0000000000000000
(1664369917.855354) can0 18FEF8F9#0108DD0600000000
(1664369917.864436) can0 18FEF8F9#0400000000000000
(1664369917.864479) can0 18FEF8F9#0500000000000000
(1664369917.864724) can0 18FEF8F9#062C9F0700000000
(1664369917.865014) can0 18FEF8F9#0700000000000000
(1664369917.865300) can0 0C269980#0000000000000000
(1664369917.884103) can0 0C279980#0000000000000000
(1664369917.904586) can0 18FEF8F9#1400000000000000
(1664369917.904844) can0 18FEF8F9#1500000000000000
(1664369917.905104) can0 18FEF8F9#1600000000000000
(1664369917.905417) can0 18FEF8F9#1700000000000000
(1664369917.915072) can0 18FEF8F9#1800000000000000
(1664369917.915303) can0 18FEF8F9#1900000000000000
(1664369917.915623) can0 18FEF8F9#1A00000000000000
(1664369917.915948) can0 18FEF8F9#1B00000000000000
(1664369917.924588) can0 18FEF8F9#1C00000000000000
(1664369917.924832) can0 18FEF8F9#1D00000000000000
(1664369917.925147) can0 18FEF8F9#1E00000000000000
(1664369917.925428) can0 18FEF8F9#1F00000000000000
(1664369917.925724) can0 0C289980#0000000000000000
(1664369917.935110) can0 18FEF8F9#2000000000000000
(1664369917.935326) can0 18FEF8F9#2100000000000000
(1664369917.935645) can0 18FEF8F9#2200000000000000
(1664369917.935908) can0 18FEF8F9#2300000000000000
(1664369917.947327) can0 18FEF8F9#0000000000000000
(1664369917.947368) can0 18FEF8F9#0200000000000000
(1664369917.947625) can0 18FEF8F9#0300000000000000
(1664369917.947909) can0 0C299980#0000000000000000
(1664369917.964601) can0 18FEF8F9#0800000000000000
(1664369917.964644) can0 18FEF8F9#0900000000000000
(1664369917.964987) can0 18FEF8F9#0A00000000000000
(1664369917.965239) can0 18FEF8F9#0B00000000000000
(1664369917.975187) can0 18FEF8F9#0C00000000000000
(1664369917.975253) can0 18FEF8F9#0D00000000000000
(1664369917.975686) can0 18FEF8F9#0E00000000000000
(1664369917.975955) can0 18FEF8F9#0F00000000000000
(1664369917.984302) can0 18FEF8F9#1000000000000000
(1664369917.984530) can0 18FEF8F9#1100000000000000
(1664369917.984867) can0 18FEF8F9#1200000000000000
(1664369917.985127) can0 18FEF8F9#1300000000000000
(1664369918.004426) can0 14FF9980#01
(1664369918.064597) can0 0C239980#0000000000000000
(1664369918.115199) can0 0C209980#10278200C409
(1664369918.125295) can0 18FEFAF9#0100000300000000
(1664369918.215058) can0 14FF9980#01
(1664369918.264678) can0 0C009980#090F0000000000
(1664369918.264906) can0 0C219980#0000007000000000
(1664369918.324982) can0 0C019980#060050FFD0070000
(1664369918.325193) can0 0C2A9980#FFFFFFFFFFFFFFFF
(1664369918.344596) can0 0C229980#000000007D000000
(1664369918.424166) can0 14FF9980#01
(1664369918.634915) can0 18FEFAF9#0100000300000000
(1664369918.634957) can0 14FF9980#01
(1664369918.784484) can0 0C249980#0000000000000000
(1664369918.844140) can0 14FF9980#01
(1664369918.855186) can0 0C259980#0000000000000000
(1664369918.875053) can0 0C269980#0000000000000000
(1664369918.894655) can0 0C279980#0000000000000000
(1664369918.934654) can0 0C289980#0000000000000000
(1664369918.955393) can0 0C299980#0000000000000000
(1664369919.024013) can0 18FEF8F9#0108DD0600000000
(1664369919.035046) can0 18FEF8F9#0400000000000000
(1664369919.035256) can0 18FEF8F9#0500000000000000
(1664369919.035526) can0 18FEF8F9#062C9F0700000000
(1664369919.035812) can0 18FEF8F9#0700000000000000
(1664369919.055015) can0 14FF9980#01
(1664369919.075067) can0 18FEF8F9#1400000000000000
(1664369919.075291) can0 18FEF8F9#1500000000000000
(1664369919.075584) can0 18FEF8F9#1600000000000000
(1664369919.075904) can0 18FEF8F9#1700000000000000
(1664369919.076176) can0 0C239980#0000000000000000
(1664369919.084312) can0 18FEF8F9#1800000000000000
(1664369919.084571) can0 18FEF8F9#1900000000000000
(1664369919.084869) can0 18FEF8F9#1A00000000000000
(1664369919.085152) can0 18FEF8F9#1B00000000000000
(1664369919.094662) can0 18FEF8F9#1C00000000000000
(1664369919.094893) can0 18FEF8F9#1D00000000000000
(1664369919.095160) can0 18FEF8F9#1E00000000000000
(1664369919.095454) can0 18FEF8F9#1F00000000000000
(1664369919.104297) can0 18FEF8F9#2000000000000000
(1664369919.104536) can0 18FEF8F9#2100000000000000
(1664369919.104835) can0 18FEF8F9#2200000000000000
(1664369919.105128) can0 18FEF8F9#2300000000000000
(1664369919.115051) can0 18FEF8F9#0000000000000000
(1664369919.115308) can0 18FEF8F9#0200000000000000
(1664369919.115600) can0 18FEF8F9#0300000000000000
(1664369919.124218) can0 0C209980#10278200C409
(1664369919.135384) can0 18FEF8F9#0800000000000000
(1664369919.135426) can0 18FEF8F9#0900000000000000
(1664369919.135750) can0 18FEF8F9#0A00000000000000
(1664369919.136073) can0 18FEF8F9#0B00000000000000
(1664369919.144100) can0 18FEF8F9#0C00000000000000
(1664369919.144232) can0 18FEF8F9#0D00000000000000
(1664369919.144626) can0 18FEF8F9#0E00000000000000
(1664369919.144878) can0 18FEF8F9#0F00000000000000
(1664369919.145196) can0 18FEFAF9#0100000300000000
(1664369919.155343) can0 18FEF8F9#1000000000000000
(1664369919.155386) can0 18FEF8F9#1100000000000000
(1664369919.155647) can0 18FEF8F9#1200000000000000
(1664369919.155943) can0 18FEF8F9#1300000000000000
(1664369919.264169) can0 14FF9980#01
(1664369919.275068) can0 0C009980#090F0000000000
(1664369919.275321) can0 0C219980#0000007000000000
(1664369919.334838) can0 0C019980#060050FFD0070000
(1664369919.335164) can0 0C2A9980#FFFFFFFFFFFFFFFF
(1664369919.355176) can0 0C229980#000000007D000000
(1664369919.474942) can0 14FF9980#01
(1664369919.655327) can0 18FEFAF9#0100000300000000
(1664369919.684099) can0 14FF9980#01
(1664369919.804041) can0 0C249980#0000000000000000
(1664369919.864477) can0 0C259980#0000000000000000
(1664369919.884460) can0 0C269980#0000000000000000
(1664369919.904558) can0 0C279980#0000000000000000
(1664369919.904600) can0 14FF9980#01
(1664369919.951848) can0 0C289980#0000000000000000
(1664369919.964264) can0 0C299980#0000000000000000
(1664369920.084548) can0 0C239980#0000000000000000
(1664369920.115001) can0 14FF9980#01
(1664369920.144140) can0 0C209980#10278200C409
(1664369920.164253) can0 18FEFAF9#0100000300000000
(1664369920.195091) can0 18FEF8F9#0108DD0600000000
(1664369920.204115) can0 18FEF8F9#0400000000000000
(1664369920.204376) can0 18FEF8F9#0500000000000000
(1664369920.204742) can0 18FEF8F9#062C9F0700000000
(1664369920.204956) can0 18FEF8F9#0700000000000000
(1664369920.243957) can0 18FEF8F9#1400000000000000
(1664369920.244197) can0 18FEF8F9#1500000000000000
(1664369920.244452) can0 18FEF8F9#1600000000000000
(1664369920.244832) can0 18FEF8F9#1700000000000000
(1664369920.255128) can0 18FEF8F9#1800000000000000
(1664369920.255406) can0 18FEF8F9#1900000000000000
(1664369920.255678) can0 18FEF8F9#1A00000000000000
(1664369920.255984) can0 18FEF8F9#1B00000000000000
(1664369920.264153) can0 18FEF8F9#1C00000000000000
(1664369920.264428) can0 18FEF8F9#1D00000000000000
(1664369920.264706) can0 18FEF8F9#1E00000000000000
(1664369920.265009) can0 18FEF8F9#1F00000000000000
(1664369920.275139) can0 18FEF8F9#2000000000000000
(1664369920.275377) can0 18FEF8F9#2100000000000000
(1664369920.275675) can0 18FEF8F9#2200000000000000
(1664369920.275984) can0 18FEF8F9#2300000000000000
(1664369920.284448) can0 18FEF8F9#0000000000000000
(1664369920.284492) can0 18FEF8F9#0200000000000000
(1664369920.284739) can0 18FEF8F9#0300000000000000
(1664369920.285034) can0 0C009980#090F0000000000
(1664369920.285303) can0 0C219980#0000007000000000
(1664369920.304464) can0 18FEF8F9#0800000000000000
(1664369920.304707) can0 18FEF8F9#0900000000000000
(1664369920.304982) can0 18FEF8F9#0A00000000000000
(1664369920.305354) can0 18FEF8F9#0B00000000000000
(1664369920.314952) can0 18FEF8F9#0C00000000000000
(1664369920.315176) can0 18FEF8F9#0D00000000000000
(1664369920.315495) can0 18FEF8F9#0E00000000000000
(1664369920.315725) can0 18FEF8F9#0F00000000000000
(1664369920.325166) can0 18FEF8F9#1000000000000000
(1664369920.325432) can0 18FEF8F9#1100000000000000
(1664369920.325618) can0 18FEF8F9#1200000000000000
(1664369920.325900) can0 18FEF8F9#1300000000000000
(1664369920.326071) can0 14FF9980#01
(1664369920.350371) can0 0C019980#060050FFD0070000
(1664369920.350601) can0 0C2A9980#FFFFFFFFFFFFFFFF
(1664369920.364846) can0 0C229980#000000007D000000
(1664369920.534750) can0 14FF9980#01
(1664369920.684090) can0 18FEFAF9#0100000300000000
(1664369920.744415) can0 14FF9980#01
(1664369920.815004) can0 0C249980#0000000000000000
(1664369920.884593) can0 0C259980#0000000000000000
(1664369920.895272) can0 0C269980#0000000000000000
(1664369920.915301) can0 0C279980#0000000000000000
(1664369920.955130) can0 0C289980#0000000000000000
(1664369920.955173) can0 14FF9980#01
(1664369920.975122) can0 0C299980#0000000000000000
(1664369921.095126) can0 0C239980#0000000000000000
(1664369921.155422) can0 0C209980#10278200C409
(1664369921.164439) can0 14FF9980#01
(1664369921.204651) can0 18FEFAF9#0100000300000000
(1664369921.304119) can0 0C009980#090F0000000000
(1664369921.304393) can0 0C219980#0000007000000000
(1664369921.354857) can0 0C019980#060050FFD0070000
(1664369921.355144) can0 0C2A9980#FFFFFFFFFFFFFFFF
(1664369921.364006) can0 18FEF8F9#0108DD0600000000
(1664369921.374463) can0 18FEF8F9#0400000000000000
(1664369921.374724) can0 18FEF8F9#0500000000000000
(1664369921.375016) can0 18FEF8F9#062C9F0700000000
(1664369921.375295) can0 18FEF8F9#0700000000000000
(1664369921.375616) can0 0C229980#000000007D000000
(1664369921.375748) can0 14FF9980#01
(1664369921.414914) can0 18FEF8F9#1400000000000000
(1664369921.415187) can0 18FEF8F9#1500000000000000
(1664369921.415483) can0 18FEF8F9#1600000000000000
(1664369921.415792) can0 18FEF8F9#1700000000000000
(1664369921.424077) can0 18FEF8F9#1800000000000000
(1664369921.424336) can0 18FEF8F9#1900000000000000
(1664369921.424615) can0 18FEF8F9#1A00000000000000
(1664369921.424927) can0 18FEF8F9#1B00000000000000
(1664369921.434626) can0 18FEF8F9#1C00000000000000
(1664369921.434936) can0 18FEF8F9#1D00000000000000
(1664369921.435223) can0 18FEF8F9#1E00000000000000
(1664369921.435542) can0 18FEF8F9#1F00000000000000
(1664369921.444015) can0 18FEF8F9#2000000000000000
(1664369921.444326) can0 18FEF8F9#2100000000000000
(1664369921.444573) can0 18FEF8F9#2200000000000000
(1664369921.444856) can0 18FEF8F9#2300000000000000
(1664369921.454816) can0 18FEF8F9#0000000000000000
(1664369921.454858) can0 18FEF8F9#0200000000000000
(1664369921.455153) can0 18FEF8F9#0300000000000000
(1664369921.474414) can0 18FEF8F9#0800000000000000
(1664369921.474580) can0 18FEF8F9#0900000000000000
(1664369921.474932) can0 18FEF8F9#0A00000000000000
(1664369921.475238) can0 18FEF8F9#0B00000000000000
(1664369921.484364) can0 18FEF8F9#0C00000000000000
(1664369921.484676) can0 18FEF8F9#0D00000000000000
(1664369921.484958) can0 18FEF8F9#0E00000000000000
(1664369921.485258) can0 18FEF8F9#0F00000000000000
(1664369921.495847) can0 18FEF8F9#1000000000000000
(1664369921.496124) can0 18FEF8F9#1100000000000000
(1664369921.496344) can0 18FEF8F9#1200000000000000
(1664369921.496642) can0 18FEF8F9#1300000000000000
(1664369921.583914) can0 14FF9980#01
(1664369921.715159) can0 18FEFAF9#0100000300000000
(1664369921.804224) can0 14FF9980#01
(1664369921.824260) can0 0C249980#0000000000000000
(1664369921.895092) can0 0C259980#0000000000000000
(1664369921.904166) can0 0C269980#0000000000000000
(1664369921.924979) can0 0C279980#0000000000000000
(1664369921.964183) can0 0C289980#0000000000000000
(1664369921.984410) can0 0C299980#0000000000000000
(1664369922.024546) can0 14FF9980#01
(1664369922.105088) can0 0C239980#0000000000000000
(1664369922.164192) can0 0C209980#10278200C409
(1664369922.224179) can0 18FEFAF9#0100000300000000
(1664369922.234705) can0 14FF9980#01
(1664369922.324075) can0 0C009980#090F0000000000
(1664369922.324271) can0 0C219980#0000007000000000
(1664369922.364295) can0 0C019980#060050FFD0070000
(1664369922.364547) can0 0C2A9980#FFFFFFFFFFFFFFFF
(1664369922.384226) can0 0C229980#000000007D000000
(1664369922.443997) can0 14FF9980#01
(1664369922.535002) can0 18FEF8F9#0108DD0600000000
(1664369922.544055) can0 18FEF8F9#0400000000000000
(1664369922.544390) can0 18FEF8F9#0500000000000000
(1664369922.544608) can0 18FEF8F9#062C9F0700000000
(1664369922.544891) can0 18FEF8F9#0700000000000000
(1664369922.584081) can0 18FEF8F9#1400000000000000
(1664369922.584297) can0 18FEF8F9#1500000000000000
(1664369922.584595) can0 18FEF8F9#1600000000000000
(1664369922.584876) can0 18FEF8F9#1700000000000000
(1664369922.594875) can0 18FEF8F9#1800000000000000
(1664369922.595145) can0 18FEF8F9#1900000000000000
(1664369922.595495) can0 18FEF8F9#1A00000000000000
(1664369922.595825) can0 18FEF8F9#1B00000000000000
(1664369922.605082) can0 18FEF8F9#1C00000000000000
(1664369922.605122) can0 18FEF8F9#1D00000000000000
(1664369922.605426) can0 18FEF8F9#1E00000000000000
(1664369922.605725) can0 18FEF8F9#1F00000000000000
(1664369922.614954) can0 18FEF8F9#2000000000000000
(1664369922.615245) can0 18FEF8F9#2100000000000000
(1664369922.615516) can0 18FEF8F9#2200000000000000
(1664369922.615825) can0 18FEF8F9#2300000000000000
(1664369922.624348) can0 18FEF8F9#0000000000000000
(1664369922.624619) can0 18FEF8F9#0200000000000000
(1664369922.624964) can0 18FEF8F9#0300000000000000
(1664369922.644495) can0 18FEF8F9#0800000000000000
(1664369922.644743) can0 18FEF8F9#0900000000000000
(1664369922.645064) can0 18FEF8F9#0A00000000000000
(1664369922.645364) can0 18FEF8F9#0B00000000000000
(1664369922.654951) can0 18FEF8F9#0C00000000000000
(1664369922.655262) can0 18FEF8F9#0D00000000000000
(1664369922.655536) can0 18FEF8F9#0E00000000000000
(1664369922.655750) can0 18FEF8F9#0F00000000000000
(1664369922.664391) can0 18FEF8F9#1000000000000000
(1664369922.664702) can0 18FEF8F9#1100000000000000
(1664369922.664934) can0 18FEF8F9#1200000000000000
(1664369922.665196) can0 18FEF8F9#1300000000000000
(1664369922.665343) can0 14FF9980#01
(1664369922.734525) can0 18FEFAF9#0100000300000000
(1664369922.835000) can0 0C249980#0000000000000000
(1664369922.874856) can0 14FF9980#01
(1664369922.904425) can0 0C259980#0000000000000000
(1664369922.914977) can0 0C269980#0000000000000000
(1664369922.934578) can0 0C279980#0000000000000000
(1664369922.974518) can0 0C289980#0000000000000000
(1664369922.997448) can0 0C299980#0000000000000000
(1664369923.083935) can0 14FF9980#01
(1664369923.124282) can0 0C239980#0000000000000000
(1664369923.184551) can0 0C209980#10278200C409
(1664369923.245945) can0 18FEFAF9#0100000300000000
(1664369923.298890) can0 14FF9980#01
(1664369923.344456) can0 0C009980#090F0000000000
(1664369923.344703) can0 0C219980#0000007000000000
(1664369923.375069) can0 0C019980#060050FFD0070000
(1664369923.384323) can0 0C2A9980#FFFFFFFFFFFFFFFF
(1664369923.395233) can0 0C229980#000000007D000000
(1664369923.504872) can0 14FF9980#01
(1664369923.704921) can0 18FEF8F9#0108DD0600000000
(1664369923.714860) can0 18FEF8F9#0400000000000000
(1664369923.715137) can0 18FEF8F9#0500000000000000
(1664369923.715420) can0 18FEF8F9#062C9F0700000000
(1664369923.715642) can0 18FEF8F9#0700000000000000
(1664369923.715802) can0 14FF9980#01
(1664369923.754735) can0 18FEF8F9#1400000000000000
(1664369923.755016) can0 18FEF8F9#1500000000000000
(1664369923.755324) can0 18FEF8F9#1600000000000000
(1664369923.755609) can0 18FEF8F9#1700000000000000
(1664369923.755816) can0 18FEFAF9#0100000300000000
(1664369923.764620) can0 18FEF8F9#1800000000000000
(1664369923.764666) can0 18FEF8F9#1900000000000000
(1664369923.764977) can0 18FEF8F9#1A00000000000000
(1664369923.765272) can0 18FEF8F9#1B00000000000000
(1664369923.774350) can0 18FEF8F9#1C00000000000000
(1664369923.774644) can0 18FEF8F9#1D00000000000000
(1664369923.774953) can0 18FEF8F9#1E00000000000000
(1664369923.775234) can0 18FEF8F9#1F00000000000000
(1664369923.784086) can0 18FEF8F9#2000000000000000
(1664369923.784341) can0 18FEF8F9#2100000000000000
(1664369923.784594) can0 18FEF8F9#2200000000000000
(1664369923.784873) can0 18FEF8F9#2300000000000000
(1664369923.794380) can0 18FEF8F9#0000000000000000
(1664369923.794696) can0 18FEF8F9#0200000000000000
(1664369923.794992) can0 18FEF8F9#0300000000000000
(1664369923.814827) can0 18FEF8F9#0800000000000000
(1664369923.815111) can0 18FEF8F9#0900000000000000
(1664369923.815385) can0 18FEF8F9#0A00000000000000
(1664369923.815638) can0 18FEF8F9#0B00000000000000
(1664369923.824205) can0 18FEF8F9#0C00000000000000
(1664369923.824496) can0 18FEF8F9#0D00000000000000
(1664369923.824798) can0 18FEF8F9#0E00000000000000
(1664369923.825095) can0 18FEF8F9#0F00000000000000
(1664369923.834399) can0 18FEF8F9#1000000000000000
(1664369923.834676) can0 18FEF8F9#1100000000000000
(1664369923.834945) can0 18FEF8F9#1200000000000000
(1664369923.835170) can0 18FEF8F9#1300000000000000
(1664369923.844939) can0 0C249980#0000000000000000
(1664369923.914896) can0 0C259980#0000000000000000
(1664369923.924260) can0 0C269980#0000000000000000
(1664369923.924314) can0 14FF9980#01
(1664369923.944409) can0 0C279980#0000000000000000
(1664369923.984266) can0 0C289980#0000000000000000
(1664369924.004900) can0 0C299980#0000000000000000
(1664369924.134571) can0 0C239980#0000000000000000
(1664369924.143979) can0 14FF9980#01
(1664369924.194297) can0 0C209980#10278200C409
